;Version, 1, 0
;/M0/D (len=1.8e-07),;/M0/D (len=2.2e-07),;/M0/D (len=2.5e-07),;/M0/D (len=2.9e-07),;/M0/D (len=3.25e-07),;/M0/D (len=3.6e-07),;/M0/D (len=4.3e-07),;/M0/D (len=5e-07),;/M0/D (len=5.75e-07),;/M0/D (len=6.5e-07),;/M0/D (len=7.2e-07)
;X, Y,;X, Y,;X, Y,;X, Y,;X, Y,;X, Y,;X, Y,;X, Y,;X, Y,;X, Y,;X, Y
;Re, Re,;Re, Re,;Re, Re,;Re, Re,;Re, Re,;Re, Re,;Re, Re,;Re, Re,;Re, Re,;Re, Re,;Re, Re
;VG, I,;VG, I,;VG, I,;VG, I,;VG, I,;VG, I,;VG, I,;VG, I,;VG, I,;VG, I,;VG, I
;xunit, A,;xunit, A,;xunit, A,;xunit, A,;xunit, A,;xunit, A,;xunit, A,;xunit, A,;xunit, A,;xunit, A,;xunit, A
0,2.134557514027284e-12,0,1.405147438698516e-12,0,1.134494120148084e-12,0,9.088807104593532e-13,0,7.738533536641814e-13,0,6.719335992897758e-13,0,5.283698630869e-13,0,4.340670702783706e-13,0,4.850492650896676e-13,0,5.228684298342625e-13,0,5.484094555969869e-13
0.025,4.112030857167668e-12,0.025,2.673461822282937e-12,0.025,2.139633824018015e-12,0.025,1.694625845307003e-12,0.025,1.428286815988781e-12,0.025,1.227249017265402e-12,0.025,9.440636180881662e-13,0.025,7.580439727320335e-13,0.025,8.585916158151736e-13,0.025,9.331715365205841e-13,0.025,9.835330301425791e-13
0.05,8.011320977978754e-12,0.05,5.174625844143684e-12,0.05,4.121878715001587e-12,0.05,3.244248788029306e-12,0.05,2.718966570485439e-12,0.05,2.322465414895196e-12,0.05,1.763934676257689e-12,0.05,1.397035936968186e-12,0.05,1.5953014589244e-12,0.05,1.742341828249969e-12,0.05,1.841617719803587e-12
0.07500000000000001,1.569819203260744e-11,0.07500000000000001,1.010594170652047e-11,0.07500000000000001,8.030286579301066e-12,0.07500000000000001,6.299785417990688e-12,0.07500000000000001,5.263991918837854e-12,0.07500000000000001,4.482116857961183e-12,0.07500000000000001,3.380696007368176e-12,0.07500000000000001,2.657147120013522e-12,0.07500000000000001,3.047999666689828e-12,0.07500000000000001,3.337812438738024e-12,0.07500000000000001,3.533438866408844e-12
0.1,3.084629260098621e-11,0.1,1.982559510468036e-11,0.1,1.573432757750496e-11,0.1,1.23230604280453e-11,0.1,1.028111049327507e-11,0.1,8.73967024295516e-12,0.1,6.568162902524104e-12,0.1,5.141579042644693e-12,0.1,5.911817181268034e-12,0.1,6.482784021823281e-12,0.1,6.868071403562023e-12
0.125,6.068286387859747e-11,0.125,3.897488810980919e-11,0.125,3.091404387851709e-11,0.125,2.419208152936001e-11,0.125,2.016801834438005e-11,0.125,1.713013683745636e-11,0.125,1.285025655618549e-11,0.125,1.003837251851634e-11,0.125,1.155549850707796e-11,0.125,1.267969267504875e-11,0.125,1.343796395112513e-11
0.15,1.194094387464582e-10,0.15,7.667947894190137e-11,0.15,6.080676933861335e-11,0.15,4.756800560817277e-11,0.15,3.964169134018663e-11,0.15,3.365741608864209e-11,0.15,2.522583461573695e-11,0.15,1.968575118980502e-11,0.15,2.267193456747113e-11,0.15,2.488351901469723e-11,0.15,2.637432057035789e-11
0.175,2.348860584976426e-10,0.175,1.508568372256651e-10,0.175,1.196270510310686e-10,0.175,9.357280893610511e-11,0.175,7.797083779202606e-11,0.175,6.619023093066853e-11,0.175,4.958990939079102e-11,0.175,3.868099395858249e-11,0.175,4.455303372337449e-11,0.175,4.889864218253863e-11,0.175,5.182544294777104e-11
0.2,4.616419141148523e-10,0.2,2.966172829758243e-10,0.2,2.352418379344681e-10,0.2,1.840191874826713e-10,0.2,1.533380882906266e-10,0.2,1.301680854570867e-10,0.2,9.751330910554455e-11,0.2,7.605021398758075e-11,0.2,8.75813336783432e-11,0.2,9.610601676206552e-11,0.2,1.018405488228824e-10
0.225,9.060633535941956e-10,0.225,5.825732552459455e-10,0.225,4.621432712680109e-10,0.225,3.615839805362969e-10,0.225,3.013305934987666e-10,0.225,2.558181582712447e-10,0.225,1.916601523875564e-10,0.225,1.494799519575262e-10,0.225,1.720811484554837e-10,0.225,1.887652769085144e-10,0.225,1.999697854625966e-10
0.25,1.774790796331829e-09,0.25,1.142297848640255e-09,0.25,9.065092290966161e-10,0.25,7.094864742095896e-10,0.25,5.913769846306137e-10,0.25,5.021361979705572e-10,0.25,3.762948018350054e-10,0.25,2.935316357376429e-10,0.25,3.377139225981961e-10,0.25,3.702628581627106e-10,0.25,3.920704363430384e-10
0.275,3.466745380230099e-09,0.275,2.234465201744097e-09,0.275,1.774212706198441e-09,0.275,1.389254927681391e-09,0.275,1.158329801097437e-09,0.275,9.837757460065043e-10,0.275,7.375217706825472e-10,0.275,5.754853984360245e-10,0.275,6.615417470275774e-10,0.275,7.24760484774739e-10,0.275,7.669786898847738e-10
0.3,6.745625902720116e-09,0.3,4.356417954247794e-09,0.3,3.461744116187487e-09,0.3,2.712429578641837e-09,0.3,2.262524067628813e-09,0.3,1.922250317765919e-09,0.3,1.441910992084607e-09,0.3,1.125628910769074e-09,0.3,1.292407936701711e-09,0.3,1.414450712298441e-09,0.3,1.495584770487017e-09
0.325,1.305698297137275e-08,0.325,8.455053075588782e-09,0.325,6.725720228338484e-09,0.325,5.274701809203569e-09,0.325,4.40238200751907e-09,0.325,3.742110007224074e-09,0.325,2.809269579216602e-09,0.325,2.194460251520399e-09,0.325,2.515479864429877e-09,0.325,2.749138327957922e-09,0.325,2.903510011711758e-09
0.35,2.50959316553279e-08,0.35,1.630964877100033e-08,0.35,1.299227282644781e-08,0.35,1.020190063443093e-08,0.35,8.521536022334802e-09,0.35,7.24829192000536e-09,0.35,5.447386387785953e-09,0.35,4.258952083920485e-09,0.35,4.871190078760414e-09,0.35,5.313592545757113e-09,0.35,5.60339583051185e-09
0.3750000000000001,4.778906143335348e-08,0.3750000000000001,3.120629822074155e-08,0.3750000000000001,2.490609853304393e-08,0.3750000000000001,1.958930841952805e-08,0.3750000000000001,1.638025255242736e-08,0.3750000000000001,1.394523270562756e-08,0.3750000000000001,1.049582586341018e-08,0.3750000000000001,8.215661337609208e-09,0.3750000000000001,9.369122918158326e-09,0.3750000000000001,1.019453857399068e-08,0.3750000000000001,1.072903822956664e-08
0.4000000000000001,8.99195274672692e-08,0.4000000000000001,5.908120932856482e-08,0.4000000000000001,4.727020923563877e-08,0.4000000000000001,3.725994326239298e-08,0.4000000000000001,3.120001177487564e-08,0.4000000000000001,2.659314833250026e-08,0.4000000000000001,2.005401437597292e-08,0.4000000000000001,1.572177556645276e-08,0.4000000000000001,1.786076935145404e-08,0.4000000000000001,1.937192521161677e-08,0.4000000000000001,2.033550951167517e-08
0.4250000000000001,1.666775146962027e-07,0.4250000000000001,1.103697365299792e-07,0.4250000000000001,8.858456160332032e-08,0.4250000000000001,7.00195859557099e-08,0.4250000000000001,5.873780909261499e-08,0.4250000000000001,5.014050102287313e-08,0.4250000000000001,3.790550665768864e-08,0.4250000000000001,2.977634846064762e-08,0.4250000000000001,3.366482622431138e-08,0.4250000000000001,3.63669928858807e-08,0.4250000000000001,3.805551436435757e-08
0.4500000000000001,3.034374316029811e-07,0.4500000000000001,2.028427522076397e-07,0.4500000000000001,1.634416675461589e-07,0.4500000000000001,1.296369502644048e-07,0.4500000000000001,1.089957548615642e-07,0.4500000000000001,9.321832443911622e-08,0.4500000000000001,7.069176859979461e-08,0.4500000000000001,5.567058517721906e-08,0.4500000000000001,6.257222381893422e-08,0.4500000000000001,6.727045491348087e-08,0.4500000000000001,7.013096471762755e-08
0.4750000000000001,5.410665560501479e-07,0.4750000000000001,3.657412179766438e-07,0.4750000000000001,2.960766251703157e-07,0.4750000000000001,2.358225639662846e-07,0.4750000000000001,1.988181143641036e-07,0.4750000000000001,1.70428316303529e-07,0.4750000000000001,1.297321811826529e-07,0.4750000000000001,1.024756831633721e-07,0.4750000000000001,1.143954453919108e-07,0.4750000000000001,1.223104828635264e-07,0.4750000000000001,1.269747955991424e-07
0.5000000000000001,9.431573482434248e-07,0.5000000000000001,6.455843481157727e-07,0.5000000000000001,5.25432666035505e-07,0.5000000000000001,4.205434262957224e-07,0.5000000000000001,3.556901572911534e-07,0.5000000000000001,3.057166941904168e-07,0.5000000000000001,2.337416511413481e-07,0.5000000000000001,1.852859270301214e-07,0.5000000000000001,2.052785717314996e-07,0.5000000000000001,2.181738242033685e-07,0.5000000000000001,2.25471769661517e-07
0.5250000000000001,1.605820231362916e-06,0.5250000000000001,1.114182198257303e-06,0.5250000000000001,9.122325600147264e-07,0.5250000000000001,7.341211469315022e-07,0.5250000000000001,6.231535111946296e-07,0.5250000000000001,5.372183199481603e-07,0.5250000000000001,4.127777361175187e-07,0.5250000000000001,3.285058720185513e-07,0.5250000000000001,3.610504439563564e-07,0.5250000000000001,3.813446410001955e-07,0.5250000000000001,3.922591019405209e-07
0.5500000000000002,2.670698539376694e-06,0.5500000000000002,1.879392723675095e-06,0.5500000000000002,1.548541795147805e-06,0.5500000000000002,1.253550151404399e-06,0.5500000000000002,1.068243919633959e-06,0.5500000000000002,9.239532299594353e-07,0.5500000000000002,7.137625236683945e-07,0.5500000000000002,5.704963388512617e-07,0.5500000000000002,6.218452914916972e-07,0.5500000000000002,6.525726775041951e-07,0.5500000000000002,6.679892868057991e-07
0.5750000000000002,4.3403948219605e-06,0.5750000000000002,3.098041427555249e-06,0.5750000000000002,2.569307981321492e-06,0.5750000000000002,2.092591312179941e-06,0.5750000000000002,1.790573243792587e-06,0.5750000000000002,1.554066952823208e-06,0.5750000000000002,1.207399623581941e-06,0.5750000000000002,9.694987226111337e-07,0.5750000000000002,1.047538706192231e-06,0.5750000000000002,1.091672869492873e-06,0.5750000000000002,1.111505049860272e-06
0.6000000000000002,6.89086772538643e-06,0.6000000000000002,4.986658486289726e-06,0.6000000000000002,4.161970289403626e-06,0.6000000000000002,3.410187990252002e-06,0.6000000000000002,2.92996141663616e-06,0.6000000000000002,2.551857863724068e-06,0.6000000000000002,1.994324045036991e-06,0.6000000000000002,1.609145329607907e-06,0.6000000000000002,1.721528416541363e-06,0.6000000000000002,1.779645743767227e-06,0.6000000000000002,1.800603377018457e-06
0.6250000000000002,1.066793161416985e-05,0.6250000000000002,7.819319971415414e-06,0.6250000000000002,6.564437780483211e-06,0.6250000000000002,5.408569953935597e-06,0.6250000000000002,4.664790285363723e-06,0.6250000000000002,4.076489581916813e-06,0.6250000000000002,3.204624107774526e-06,0.6250000000000002,2.598682246169972e-06,0.6250000000000002,2.747380641508111e-06,0.6250000000000002,2.81259286582297e-06,0.6250000000000002,2.824120267751413e-06
0.6500000000000002,1.605082473007503e-05,0.6500000000000002,1.189811685752089e-05,0.6500000000000002,1.003841609381692e-05,0.6500000000000002,8.309558124857721e-06,0.6500000000000002,7.190651866231132e-06,0.6500000000000002,6.30282680136807e-06,0.6500000000000002,4.982516584841542e-06,0.6500000000000002,4.060707244868566e-06,0.6500000000000002,4.232455813362565e-06,0.6500000000000002,4.283258719766125e-06,0.6500000000000002,4.262746657749691e-06
0.6750000000000003,2.33768116247723e-05,0.6750000000000003,1.749134575113887e-05,0.6750000000000003,1.481424312492527e-05,0.6750000000000003,1.230625674528745e-05,0.6750000000000003,1.067694846710111e-05,0.6750000000000003,9.382225587568488e-06,0.6750000000000003,7.45389431588342e-06,0.6750000000000003,6.103860119036588e-06,0.6750000000000003,6.260243531598007e-06,0.6750000000000003,6.255157512336016e-06,0.6750000000000003,6.165561842150684e-06
0.7000000000000003,3.285089178168956e-05,0.7000000000000003,2.476063639959143e-05,0.7000000000000003,2.10274170722708e-05,0.7000000000000003,1.750898743999728e-05,0.7000000000000003,1.521897555279587e-05,0.7000000000000003,1.339939603718778e-05,0.7000000000000003,1.06900947887622e-05,0.7000000000000003,8.791401896107459e-06,0.7000000000000003,8.865687654440388e-06,0.7000000000000003,8.744279482585903e-06,0.7000000000000003,8.536666207228888e-06
0.7250000000000003,4.448855266719244e-05,0.7250000000000003,3.371735515844468e-05,0.7250000000000003,2.868295986569558e-05,0.7250000000000003,2.391713293228323e-05,0.7250000000000003,2.081403848621752e-05,0.7250000000000003,1.835135531713787e-05,0.7250000000000003,1.469006927527012e-05,0.7250000000000003,1.212504927153712e-05,0.7250000000000003,1.202906520962458e-05,0.7250000000000003,1.171946948812175e-05,0.7250000000000003,1.133934375225332e-05
0.7500000000000003,5.812247688394958e-05,0.7500000000000003,4.423145558263288e-05,0.7500000000000003,3.766607808983259e-05,0.7500000000000003,3.143092121125036e-05,0.7500000000000003,2.737319641305667e-05,0.7500000000000003,2.415856318482746e-05,0.7500000000000003,1.938962767830336e-05,0.7500000000000003,1.605225680869381e-05,0.7500000000000003,1.568903139508522e-05,0.7500000000000003,1.511756330696478e-05,0.7500000000000003,1.451155034902105e-05
0.7750000000000004,7.346001044839847e-05,0.7750000000000004,5.607881684326578e-05,0.7750000000000004,4.778455422591992e-05,0.7750000000000004,3.988858079663089e-05,0.7750000000000004,3.475463705084208e-05,0.7750000000000004,3.069509300806712e-05,0.7750000000000004,2.46865376596212e-05,0.7750000000000004,2.048753208929948e-05,0.7750000000000004,1.976314096726993e-05,0.7750000000000004,1.886186420574087e-05,0.7750000000000004,1.79823543215196e-05
0.8000000000000004,9.015463977658176e-05,0.8000000000000004,6.899681273905219e-05,0.8000000000000004,5.881620449277547e-05,0.8000000000000004,4.910596872129359e-05,0.8000000000000004,4.279832225653079e-05,0.8000000000000004,3.781947227173737e-05,0.8000000000000004,3.046598747772029e-05,0.8000000000000004,2.533427212132964e-05,0.8000000000000004,2.416545906574307e-05,0.8000000000000004,2.287631414123292e-05,0.8000000000000004,2.168362616726774e-05
0.8250000000000004,0.0001078635473945533,0.8250000000000004,8.272744218259239e-05,0.8250000000000004,7.054462038669707e-05,0.8250000000000004,5.890546966127648e-05,0.8250000000000004,5.135077382049833e-05,0.8250000000000004,4.539648359246648e-05,0.8250000000000004,3.661842440768976e-05,0.8250000000000004,3.050009709596094e-05,0.8250000000000004,2.881752475163203e-05,0.8250000000000004,2.709352912140347e-05,0.8250000000000004,2.555619350815359e-05
0.8500000000000004,0.0001262819741732453,0.8500000000000004,9.704229564821991e-05,0.8500000000000004,8.27792862570538e-05,0.8500000000000004,6.913175159657964e-05,0.8500000000000004,6.027831847320006e-05,0.8500000000000004,5.33086639152338e-05,0.8500000000000004,4.304886519436084e-05,0.8500000000000004,3.590486593849275e-05,0.8500000000000004,3.365327057333649e-05,0.8500000000000004,3.145787768260886e-05,0.8500000000000004,2.95518412340455e-05
0.8750000000000004,0.0001451572814170744,0.8750000000000004,0.0001117523194606244,0.8750000000000004,9.536306024459156e-05,0.8750000000000004,7.965725907361861e-05,0.8750000000000004,6.947150652376896e-05,0.8750000000000004,6.146002790787008e-05,0.8750000000000004,4.967984195459262e-05,0.8750000000000004,4.14832307622379e-05,0.8750000000000004,3.86198882701883e-05,0.8750000000000004,3.59254739675519e-05,0.8750000000000004,3.363286208226853e-05
0.9000000000000005,0.0001642896743729956,0.9000000000000005,0.0001267078520511378,0.9000000000000005,0.0001081717507423312,0.9000000000000005,9.038144602767903e-05,0.9000000000000005,7.884422893424728e-05,0.9000000000000005,6.977516813251255e-05,0.9000000000000005,5.64505981054608e-05,0.9000000000000005,4.71839749148064e-05,0.9000000000000005,4.367652786152929e-05,0.9000000000000005,4.046265300055819e-05,0.9000000000000005,3.777048440192178e-05
0.9250000000000005,0.0001835260501526036,0.9250000000000005,0.0001417937639274374,0.9250000000000005,0.0001211098102079071,0.9250000000000005,0.0001012270218540202,0.9250000000000005,8.83303527901901e-05,0.9250000000000005,7.819621860424791e-05,0.9250000000000005,6.331457027665226e-05,0.9250000000000005,5.296788005255189e-05,0.9250000000000005,4.879215258536757e-05,0.9250000000000005,4.504395334446379e-05,0.9250000000000005,4.194300420518618e-05
0.9500000000000005,0.0002027514173729214,0.9500000000000005,0.000156922949117156,0.9500000000000005,0.0001341047951092993,0.9500000000000005,0.0001121353193357025,0.9500000000000005,9.787966693672883e-05,0.9500000000000005,8.667924766339602e-05,0.9500000000000005,7.023642803450808e-05,0.9500000000000005,5.88052118832669e-05,0.9500000000000005,5.39433114730628e-05,0.9500000000000005,4.965016189633738e-05,0.9500000000000005,4.613404775151121e-05
0.9750000000000005,0.0002218803785184288,0.9750000000000005,0.0001720299575334105,0.9750000000000005,0.0001471020267643666,0.9750000000000005,0.0001230619039666808,0.9750000000000005,0.0001074540769683514,0.9750000000000005,9.519089398152092e-05,0.9750000000000005,7.718932742793236e-05,0.9750000000000005,6.467338660813766e-05,0.9750000000000005,5.911218650591562e-05,0.9750000000000005,5.426665851005275e-05,0.9750000000000005,5.033113292062305e-05
1,0.0002408497874738107,1,0.0001870655510244917,1,0.0001600600654276889,1,0.0001339728878562896,1,0.000117024430035354,1,0.0001037055706359212,1,8.415263694971342e-05,1,7.055503973437127e-05,1,6.428502884701898e-05,1,5.888211828223754e-05,1,5.452455705169296e-05
1.025,0.0002596128924669782,1.025,0.000201992387178277,1.025,0.0001729471435519374,1.025,0.0001448420449921319,1.025,0.0001265680411385349,1.025,0.0001122032937810223,1.025,9.111017757489003e-05,1.025,7.643653313048268e-05,1.025,6.945097562131675e-05,1.025,6.348754352248599e-05,1.025,5.870657519397558e-05
1.05,0.0002781348820947212,1.05,0.000216781755144725,1.05,0.0001857384820237979,1.05,0.0001556486534156376,1.05,0.0001360668500922917,1.05,0.0001206680696449633,1.05,9.804892003913844e-05,1.05,8.230685182270406e-05,1.05,7.460118865615743e-05,1.05,6.807556625964726e-05,1.05,6.287081207925634e-05
1.075,0.0002963896020468849,1.075,0.0002314111832484491,1.075,0.0001984143327481907,1.075,0.0001663759303665952,1.075,0.0001455060902416462,1.075,0.0001290867329784587,1.075,0.000104958050570814,1.075,8.815681466429745e-05,1.075,7.972824509250316e-05,1.075,7.26399584804652e-05,1.075,6.701185137947518e-05
1.1,0.0003143571842016376,1.1,0.0002458627227170462,1.1,0.0002109585817287082,1.1,0.0001770099223412288,1.1,0.0001548733483048842,1.1,0.000137448129627281,1.1,0.0001118283166713975,1.1,9.397852334054476e-05,1.1,8.482571565477974e-05,1.1,7.717529521385737e-05,1.1,7.112495432172449e-05
1.125,0.0003320223574737807,1.125,0.0002601217344575575,1.125,0.0002233577674886743,1.125,0.000187538730668293,1.125,0.0001641579117823588,1.125,0.0001457425515302959,1.125,0.0001186515777483988,1.125,9.976498548960216e-05,1.125,8.988787818668139e-05,1.125,8.167672679807239e-05,1.125,7.520587014616169e-05
1.15,0.000349373254237677,1.15,0.0002741760398812134,1.15,0.0002356003989441462,1.15,0.0001979519779423703,1.15,0.0001733503221906196,1.15,0.0001539613519845438,1.15,0.000125420501610565,1.15,0.0001055098615973939,1.15,9.490952637648234e-05,1.15,8.613982745421808e-05,1.15,7.925071045010459e-05
1.175,0.0003664005703122748,1.175,0.0002880153301345637,1.175,0.0002476764850095366,1.175,0.0002082404440085812,1.175,0.0001824420727449759,1.175,0.0001620966871193347,1.175,0.0001321283627466733,1.175,0.0001112072980869847,1.175,9.98858442369915e-05,1.175,9.056049627646644e-05,1.175,8.325586724791076e-05
1.2,0.0003830969739509188,1.2,0.0003016307562019605,1.2,0.000259577211761623,1.2,0.0002183958195326352,1.2,0.0001914254058773735,1.2,0.0001701413443630081,1.2,0.0001387689104891161,1.2,0.0001168518194399449,1.2,0.0001048123253094793,1.2,9.493489370211235e-05,1.2,8.721796052121599e-05
1.225,0.0003994566886353993,1.225,0.0003150146442917252,1.225,0.0002712947212857506,1.225,0.0002284105401341956,1.225,0.0002002931788817387,1.225,0.0001780886300817318,1.225,0.0001453362844892438,1.225,0.0001224382601562363,1.225,0.0001096847218607069,1.225,9.925940166854652e-05,1.225,9.113380539451887e-05
1.25,0.0004154751964491013,1.25,0.0003281602973031328,1.25,0.0002828219599426242,1.25,0.0002382776751351648,1.25,0.0002090387755153153,1.25,0.0001859322969734525,1.25,0.000151824961792048,1.25,0.0001279617232154904,1.25,0.0001144990139086371,1.25,0.0001035305993590705,1.25,9.500039218426298e-05
