;Version, 1, 0
;/M0/D (tempval=-40),;/M0/D (tempval=-20),;/M0/D (tempval=27),;/M0/D (tempval=80),;/M0/D (tempval=120)
;X, Y,;X, Y,;X, Y,;X, Y,;X, Y
;Re, Re,;Re, Re,;Re, Re,;Re, Re,;Re, Re
;VG, I,;VG, I,;VG, I,;VG, I,;VG, I
;xunit, A,;xunit, A,;xunit, A,;xunit, A,;xunit, A
0,1.003666118924306e-13,0,1.029231648503161e-13,0,2.288556840982967e-13,0,2.845715693762464e-12,0,1.614865576245135e-11
0.025,1.008787088810336e-13,0.025,1.065342652635003e-13,0.025,3.531336575157495e-13,0.025,4.936518271825744e-12,0.025,2.652447852842005e-11
0.05,1.021068843207272e-13,0.05,1.146153225086229e-13,0.05,5.980878178758016e-13,0.05,8.649985283508807e-12,0.05,4.385212229992765e-11
0.07500000000000001,1.050522479034875e-13,0.07500000000000001,1.326970333812338e-13,0.07500000000000001,1.080692776478372e-12,0.07500000000000001,1.523854609733817e-11,0.07500000000000001,7.273977783791537e-11
0.1,1.121149557229806e-13,0.1,1.731476693083103e-13,0.1,2.030950826628831e-12,0.1,2.691201181207676e-11,0.1,1.207949283220532e-10
0.125,1.290478849269709e-13,0.125,2.636132582399672e-13,0.125,3.900477872637035e-12,0.125,4.755711331007569e-11,0.125,2.005162334696091e-10
0.15,1.696344548252157e-13,0.15,4.658456215002428e-13,0.15,7.574316977587336e-12,0.15,8.398186079847746e-11,0.15,3.323158510873427e-10
0.175,2.668781742589318e-13,0.175,9.176320473240588e-13,0.175,1.478223837304694e-11,0.175,1.480474742600728e-10,0.175,5.492860217291814e-10
0.2,4.997282836394369e-13,0.2,1.925935919362792e-12,0.2,2.889237840056078e-11,0.2,2.602774130325671e-10,0.2,9.046027695883686e-10
0.225,1.0567643717763e-12,0.225,4.173017055711731e-12,0.225,5.642935256807232e-11,0.225,4.558752004740769e-10,0.225,1.482826227853924e-09
0.25,2.387407572513186e-12,0.25,9.170031134766896e-12,0.25,1.099437351190263e-10,0.25,7.945737065058233e-10,0.25,2.416821853905372e-09
0.275,5.558976703623292e-12,0.275,2.024701302640057e-11,0.275,2.133488918501758e-10,0.275,1.376402987884335e-09,0.275,3.912607407700385e-09
0.3,1.309269854301183e-11,0.3,4.468734986081769e-11,0.3,4.11635459621809e-10,0.3,2.366313730503983e-09,0.3,6.285159980368313e-09
0.325,3.089600528107773e-11,0.325,9.824874319221959e-11,0.325,7.88067831813324e-10,0.325,4.031651447124121e-09,0.325,1.000908126675133e-08
0.35,7.264219204963688e-11,0.35,2.14496875689584e-10,0.35,1.493587933476019e-09,0.35,6.79783221227556e-09,0.35,1.578861213575856e-08
0.3750000000000001,1.69411216762038e-10,0.3750000000000001,4.633921406242934e-10,0.3750000000000001,2.795112611351075e-09,0.3750000000000001,1.132931660965389e-08,0.3750000000000001,2.465005023679061e-08
0.4000000000000001,3.900236867778256e-10,0.4000000000000001,9.865294653248931e-10,0.4000000000000001,5.151656684296326e-09,0.4000000000000001,1.864442775697973e-08,0.4000000000000001,3.805155149646817e-08
0.4250000000000001,8.814186555102488e-10,0.4250000000000001,2.059886180608919e-09,0.4250000000000001,9.330215890308668e-09,0.4250000000000001,3.026970645691685e-08,0.4250000000000001,5.798325030864264e-08
0.4500000000000001,1.94268767834757e-09,0.4500000000000001,4.197855228700101e-09,0.4500000000000001,1.657808033220608e-08,0.4500000000000001,4.842114804807322e-08,0.4500000000000001,8.69920053880037e-08
0.4750000000000001,4.148818630517003e-09,0.4750000000000001,8.315216028136019e-09,0.4750000000000001,2.887206462783175e-08,0.4750000000000001,7.614926821567984e-08,0.4750000000000001,1.280311047720479e-07
0.5000000000000001,8.541977608241754e-09,0.5000000000000001,1.597269673409253e-08,0.5000000000000001,4.924970491230832e-08,0.5000000000000001,1.173042683301715e-07,0.5000000000000001,1.840636245664201e-07
0.5250000000000001,1.692311902751936e-08,0.5250000000000001,2.975399757183502e-08,0.5250000000000001,8.214992925198658e-08,0.5250000000000001,1.76135592350533e-07,0.5250000000000001,2.574844505686494e-07
0.5500000000000002,3.232230420578122e-08,0.5500000000000002,5.3832772773991e-08,0.5500000000000002,1.335193213181479e-07,0.5500000000000002,2.564748811646319e-07,0.5500000000000002,3.495929164085428e-07
0.5750000000000002,5.976359576155495e-08,0.5750000000000002,9.469000420620096e-08,0.5750000000000002,2.102707797866923e-07,0.5750000000000002,3.60785744042444e-07,0.5750000000000002,4.603623316020245e-07
0.6000000000000002,1.073137764180528e-07,0.6000000000000002,1.616104027127083e-07,0.6000000000000002,3.18835584066683e-07,0.6000000000000002,4.895838544471587e-07,0.6000000000000002,5.885710331791357e-07
0.6250000000000002,1.869050029863684e-07,0.6250000000000002,2.660921829027633e-07,0.6250000000000002,4.632741624009812e-07,0.6250000000000002,6.415045110962772e-07,0.6250000000000002,7.321669630918751e-07
0.6500000000000002,3.136060343228895e-07,0.6500000000000002,4.192915874678531e-07,0.6500000000000002,6.440992657980423e-07,0.6500000000000002,8.138533412769523e-07,0.6500000000000002,8.886861936837132e-07
0.6750000000000003,5.0189460287102e-07,0.6750000000000003,6.280961519462087e-07,0.6750000000000003,8.585266122978655e-07,0.6750000000000003,1.003287019932973e-06,0.6750000000000003,1.055603818758841e-06
0.7000000000000003,7.598692696418009e-07,0.7000000000000003,8.925321073919444e-07,0.7000000000000003,1.101711090252087e-06,0.7000000000000003,1.206375498791731e-06,0.7000000000000003,1.230571657540284e-06
0.7250000000000003,1.085838481183836e-06,0.7250000000000003,1.206536259520124e-06,0.7250000000000003,1.368087984716809e-06,0.7250000000000003,1.419963285409444e-06,0.7250000000000003,1.411546909371719e-06
0.7500000000000003,1.470226885413313e-06,0.7500000000000003,1.560897803333738e-06,0.7500000000000003,1.652320301871644e-06,0.7500000000000003,1.641347565841882e-06,0.7500000000000003,1.596837337028421e-06
0.7750000000000004,1.900244457733932e-06,0.7750000000000004,1.946014785952832e-06,0.7750000000000004,1.949788186338114e-06,0.7750000000000004,1.868325827596012e-06,0.7750000000000004,1.785092276867124e-06
0.8000000000000004,2.363583266316025e-06,0.8000000000000004,2.35344781536879e-06,0.8000000000000004,2.256741774618251e-06,0.8000000000000004,2.099165937740345e-06,0.8000000000000004,1.975264165807762e-06
0.8250000000000004,2.850082820586991e-06,0.8250000000000004,2.776438790381333e-06,0.8250000000000004,2.570260240647768e-06,0.8250000000000004,2.332539183654156e-06,0.8250000000000004,2.166558170724758e-06
0.8500000000000004,3.352002670538056e-06,0.8500000000000004,3.209852508886306e-06,0.8500000000000004,2.88812437267663e-06,0.8500000000000004,2.567442541145525e-06,0.8500000000000004,2.358380855786132e-06
0.8750000000000004,3.863679440184719e-06,0.8750000000000004,3.649889786978922e-06,0.8750000000000004,3.208667901207838e-06,0.8750000000000004,2.803124808245138e-06,0.8750000000000004,2.550293737807419e-06
0.9000000000000005,4.381029434131925e-06,0.9000000000000005,4.093762375137803e-06,0.9000000000000005,3.53064044236787e-06,0.9000000000000005,3.03902326250435e-06,0.9000000000000005,2.741974175914585e-06
0.9250000000000005,4.901095637743768e-06,0.9250000000000005,4.539410220364625e-06,0.9250000000000005,3.853094632293769e-06,0.9250000000000005,3.274712703924032e-06,0.9250000000000005,2.933184014081607e-06
0.9500000000000005,5.421696838232977e-06,0.9500000000000005,4.985282850825202e-06,0.9500000000000005,4.175299187539539e-06,0.9500000000000005,3.509866233933354e-06,0.9500000000000005,3.12374533848652e-06
0.9750000000000005,5.941176888196108e-06,0.9750000000000005,5.430181008465309e-06,0.9750000000000005,4.496674815570603e-06,0.9750000000000005,3.744226046114749e-06,0.9750000000000005,3.313522269650888e-06
1,6.458233526196163e-06,1,5.873146408248743e-06,1,4.816748411452984e-06,1,3.977582236640733e-06,1,3.502407618920246e-06
1.025,6.971804675741322e-06,1.025,6.313386949866923e-06,1.025,5.135121072703326e-06,1.025,4.209757772699761e-06,1.025,3.690313326473973e-06
1.05,7.480994196147813e-06,1.05,6.750226852108957e-06,1.05,5.451446170184471e-06,1.05,4.440598046230198e-06,1.05,3.877163759069199e-06
1.075,7.985023912228674e-06,1.075,7.183073804923323e-06,1.075,5.765414546118667e-06,1.075,4.669963761346893e-06,1.075,4.062891122390849e-06
1.1,8.483202830736202e-06,1.1,7.611397522585439e-06,1.1,6.076744664709344e-06,1.1,4.897726197901839e-06,1.1,4.247432406758139e-06
1.125,8.974907468177655e-06,1.125,8.034715836477162e-06,1.125,6.38517615088555e-06,1.125,5.123764138988042e-06,1.125,4.430727424559332e-06
1.15,9.459569307179926e-06,1.15,8.452585726939571e-06,1.15,6.690465616177638e-06,1.15,5.347961943988503e-06,1.15,4.612717610759787e-06
1.175,9.936666799587809e-06,1.175,8.864597565976273e-06,1.175,6.992384009496826e-06,1.175,5.570208396387064e-06,1.175,4.793345346120964e-06
1.2,1.040572025317705e-05,1.2,9.270371432090992e-06,1.2,7.290714971802452e-06,1.2,5.790396065137151e-06,1.2,4.972553630059752e-06
1.225,1.08662885339357e-05,1.225,9.669554751018653e-06,1.225,7.585253842220346e-06,1.225,6.008420998156035e-06,1.225,5.150285980379787e-06
1.25,1.131796689865432e-05,1.25,1.006182077491067e-05,1.25,7.87580707935135e-06,1.25,6.224182623674691e-06,1.25,5.326486474119537e-06
1.274999999999999,1.176038551801229e-05,1.274999999999999,1.044686758217264e-05,1.274999999999999,8.1621919406981e-06,1.274999999999999,6.437583775587693e-06,1.274999999999999,5.501099870623733e-06
1.299999999999999,1.219320840766621e-05,1.299999999999999,1.082441739098803e-05,1.299999999999999,8.444236316626763e-06,1.299999999999999,6.648530787167253e-06,1.299999999999999,5.674071777192716e-06
1.324999999999999,1.26161325858791e-05,1.324999999999999,1.119421605189686e-05,1.324999999999999,8.721778651134521e-06,1.324999999999999,6.856933616976118e-06,1.324999999999999,5.845348831283102e-06
1.349999999999999,1.302888734138145e-05,1.349999999999999,1.155603263205631e-05,1.349999999999999,8.994667905562848e-06,1.349999999999999,7.062705984080428e-06,1.349999999999999,6.014878882741634e-06
1.374999999999999,1.343123353742805e-05,1.374999999999999,1.190965903477187e-05,1.374999999999999,9.262763537191959e-06,1.374999999999999,7.265765498579244e-06,1.374999999999999,6.182611166093115e-06
1.399999999999999,1.382296290566341e-05,1.399999999999999,1.225490961827219e-05,1.399999999999999,9.525935475049389e-06,1.399999999999999,7.466033779366504e-06,1.399999999999999,6.348496457322512e-06
1.424999999999999,1.42038973016666e-05,1.424999999999999,1.259162079121632e-05,1.424999999999999,9.784064082074719e-06,1.424999999999999,7.663436554869e-06,1.424999999999999,6.512487212511268e-06
1.449999999999999,1.457388790623038e-05,1.449999999999999,1.29196505714542e-05,1.449999999999999,1.003704009723121e-05,1.449999999999999,7.857903744929315e-06,1.449999999999999,6.674537687560904e-06
1.474999999999999,1.493281436464265e-05,1.474999999999999,1.323887810066632e-05,1.474999999999999,1.028476455404913e-05,1.474999999999999,8.049369523488618e-06,1.474999999999999,6.834604039390147e-06
1.499999999999999,1.528058386182585e-05,1.499999999999999,1.354920311166721e-05,1.499999999999999,1.052714867396943e-05,1.499999999999999,8.237772362594496e-06,1.499999999999999,6.992644409656125e-06
1.524999999999999,1.561713013500492e-05,1.524999999999999,1.38505453480252e-05,1.524999999999999,1.076411373408608e-05,1.524999999999999,8.423055058730408e-06,1.524999999999999,7.148618992389322e-06
1.549999999999998,1.594241242817259e-05,1.549999999999998,1.414284393763458e-05,1.549999999999998,1.099559090968839e-05,1.549999999999998,8.605164742684949e-06,1.549999999999998,7.302490087064025e-06
1.574999999999998,1.625641439436721e-05,1.574999999999998,1.442605672324846e-05,1.574999999999998,1.122152109253286e-05,1.574999999999998,8.784052874250159e-06,1.574999999999998,7.454222138625175e-06
1.599999999999998,1.655914295290702e-05,1.599999999999998,1.470015955392174e-05,1.599999999999998,1.144185468612735e-05,1.599999999999998,8.95967522302215e-06,1.599999999999998,7.603781765917209e-06
1.624999999999998,1.685062710940313e-05,1.624999999999998,1.49651455419396e-05,1.624999999999998,1.165655137954124e-05,1.624999999999998,9.131991836515048e-06,1.624999999999998,7.751137779844472e-06
1.649999999999998,1.713091674671187e-05,1.649999999999998,1.522102429019434e-05,1.649999999999998,1.186557990141309e-05,1.649999999999998,9.300966996717941e-06,1.649999999999998,7.896261192458534e-06
1.674999999999998,1.740008139506927e-05,1.674999999999998,1.546782109518692e-05,1.674999999999998,1.206891775592634e-05,1.674999999999998,9.466569166138003e-06,1.674999999999998,8.03912521803344e-06
1.699999999999998,1.765820898953131e-05,1.699999999999998,1.570557613090035e-05,1.699999999999998,1.226655094258747e-05,1.699999999999998,9.628770924289487e-06,1.699999999999998,8.17970526705951e-06
1.724999999999998,1.790540462257665e-05,1.724999999999998,1.593434361875437e-05,1.724999999999998,1.245847366167163e-05,1.724999999999998,9.787548895513915e-06,1.724999999999998,8.317978933968603e-06
1.749999999999998,1.814178929934157e-05,1.749999999999998,1.615419098872694e-05,1.749999999999998,1.264468800721133e-05,1.749999999999998,9.942883668949985e-06,1.749999999999998,8.453925979298679e-06
1.774999999999998,1.836749870248558e-05,1.774999999999998,1.636519803653531e-05,1.774999999999998,1.282520364939267e-05,1.774999999999998,1.009475971141586e-05,1.774999999999998,8.587528306914357e-06
1.8,1.85826819731527e-05,1.8,1.656745608152305e-05,1.8,1.300003750819609e-05,1.8,1.024316527391809e-05,1.8,8.718769936821916e-06
