;Version, 1, 0
;/VP (tempval=-40),;/VP (tempval=-20),;/VP (tempval=27),;/VP (tempval=80),;/VP (tempval=120)
;X, Y,;X, Y,;X, Y,;X, Y,;X, Y
;Re, Re,;Re, Re,;Re, Re,;Re, Re,;Re, Re
;VG, V,;VG, V,;VG, V,;VG, V,;VG, V
;xunit, V,;xunit, V,;xunit, V,;xunit, V,;xunit, V
0,-0.4911804369595387,0,-0.4750938924897639,0,-0.4397784682661644,0,-0.402753395008103,0,-0.3759922077642817
0.01,-0.4829094107331754,0.01,-0.4668560618906931,0.01,-0.4316166938635164,0.01,-0.394692888404893,0.01,-0.3680110916521537
0.02,-0.4746498820214393,0.02,-0.4586305815060581,0.02,-0.4234712551763861,0.02,-0.3866430195744602,0.02,-0.3600441545430739
0.03,-0.4664014194600652,0.03,-0.4504162532598406,0.03,-0.415337061668992,0.03,-0.3786039784976029,0.03,-0.3520866988412333
0.04,-0.4581640995458492,0.04,-0.4422131553739404,0.04,-0.4072142071777664,0.04,-0.3705759404548514,0.04,-0.3441390761055538
0.05,-0.4499379990650532,0.05,-0.4340213660735823,0.05,-0.399102783040119,0.05,-0.3625590669842614,0.05,-0.3362016029094693
0.06,-0.4417231951255023,0.06,-0.4258409636712357,0.06,-0.3910028785814422,0.06,-0.3545535079105673,0.06,-0.3282745653879295
0.07000000000000001,-0.4335197651816716,0.07000000000000001,-0.4176720266338639,0.07000000000000001,-0.3829145815205152,0.07000000000000001,-0.3465594030814532,0.07000000000000001,-0.3203582232014362
0.08,-0.4253277870541175,0.08,-0.4095146336365742,0.08,-0.3748379783061894,0.08,-0.3385768838531142,0.08,-0.3124528129902356
0.09,-0.4171473389444414,0.09,-0.4013688636053329,0.09,-0.3667731543969877,0.09,-0.3306060743612931,0.09,-0.3045585513834937
0.09999999999999999,-0.4089784994466952,0.09999999999999999,-0.3932347957508703,0.09999999999999999,-0.358720194493204,0.09999999999999999,-0.3226470926087645,0.09999999999999999,-0.2966756376203606
0.11,-0.4008213475559608,0.11,-0.3851125095954858,0.11,-0.3506791827295283,0.11,-0.3147000513956901,0.11,-0.2888042558325494
0.12,-0.3926759626746998,0.12,-0.3770020849941435,0.12,-0.3426502028348484,0.12,-0.3067650591155901,0.12,-0.2809445770319219
0.13,-0.3845424246172712,0.13,-0.3689036021509274,0.13,-0.3346333382646994,0.13,-0.2988422204362807,0.13,-0.273096760841008
0.14,-0.3764208136130023,0.14,-0.3608171416317634,0.14,-0.3266286723109699,0.14,-0.2909316368823425,0.14,-0.2652609569995671
0.15,-0.3683112103080986,0.15,-0.3527427843741059,0.15,-0.3186362881926871,0.15,-0.2830334073333605,0.15,-0.2574373066760851
0.16,-0.3602136957665711,0.16,-0.3446806116941492,0.16,-0.3106562691309918,0.16,-0.2751476284500321,0.16,-0.249625943609369
0.17,-0.3521283514703932,0.17,-0.33663070529203,0.17,-0.3026886984109596,0.17,-0.2672743950384955,0.17,-0.2418269951021773
0.18,-0.3440552593189917,0.18,-0.3285931472553776,0.18,-0.2947336594324663,0.18,-0.2594138003618426,0.18,-0.2340405828860356
0.19,-0.3359945016281899,0.19,-0.3205680200614944,0.19,-0.2867912357518597,0.19,-0.2515659364062967,0.19,-0.2262668238738089
0.2,-0.3279461611286794,0.2,-0.3125554065784312,0.2,-0.2788615111160031,0.2,-0.2437308941086266,0.2,-0.2185058308146239
0.21,-0.3199103209640992,0.21,-0.3045553900651017,0.21,-0.2709445694899038,0.21,-0.2359087635503272,0.21,-0.2107577128636712
0.2200000000000001,-0.3118870646887336,0.2200000000000001,-0.2965680541706297,0.2200000000000001,-0.2630404950789793,0.2200000000000001,-0.228099634123311,0.2200000000000001,-0.2030225760779081
0.2300000000000001,-0.3038764762649188,0.2300000000000001,-0.2885934829330054,0.2300000000000001,-0.2551493723468405,0.2300000000000001,-0.2203035946711714,0.2300000000000001,-0.1953005238472545
0.2400000000000001,-0.2958786400601501,0.2400000000000001,-0.2806317607771981,0.2400000000000001,-0.2472712860292861,0.2400000000000001,-0.2125207336095196,0.2400000000000001,-0.187591657269528
0.2500000000000001,-0.2878936408439234,0.2500000000000001,-0.272682972512737,0.2500000000000001,-0.2394063211451308,0.2500000000000001,-0.2047511390283528,0.2500000000000001,-0.1798960754764296
0.2600000000000001,-0.27992156378433,0.2600000000000001,-0.2647472033308956,0.2600000000000001,-0.231554563004367,0.2600000000000001,-0.1969948987789884,0.2600000000000001,-0.1722138759168461
0.2700000000000001,-0.2719624944444223,0.2700000000000001,-0.2568245388014537,0.2700000000000001,-0.2237160972140382,0.2700000000000001,-0.1892521005477816,0.2700000000000001,-0.1645451546029664
0.2800000000000001,-0.2640165187783546,0.2800000000000001,-0.2489150648691352,0.2800000000000001,-0.2158910096822163,0.2800000000000001,-0.1815228319184593,0.2800000000000001,-0.1568900063239703
0.2900000000000001,-0.2560837231272931,0.2900000000000001,-0.2410188678497213,0.2900000000000001,-0.2080793866203436,0.2900000000000001,-0.1738071804246648,0.2900000000000001,-0.1492485248314651
0.3000000000000001,-0.2481641942151286,0.3000000000000001,-0.2331360344258623,0.3000000000000001,-0.2002813145441781,0.3000000000000001,-0.1661052335941139,0.3000000000000001,-0.1416208030002816
0.3100000000000001,-0.2402580191439703,0.3100000000000001,-0.2252666516426209,0.3100000000000001,-0.1924968802735406,0.3100000000000001,-0.1584170789855029,0.3100000000000001,-0.1340069329677544
0.3200000000000001,-0.2323652853894327,0.3200000000000001,-0.2174108069027546,0.3200000000000001,-0.1847261709310384,0.3200000000000001,-0.1507428042191853,0.3200000000000001,-0.1264070062542625
0.3300000000000001,-0.2244860807957225,0.3300000000000001,-0.2095685879617389,0.3300000000000001,-0.1769692739398938,0.3300000000000001,-0.143082497002451,0.3300000000000001,-0.1188211138673785
0.3400000000000001,-0.216620493570502,0.3400000000000001,-0.2017400829225738,0.3400000000000001,-0.1692262770210006,0.3400000000000001,-0.1354362451502099,0.3400000000000001,-0.1112493463917485
0.3500000000000001,-0.2087686122795564,0.3500000000000001,-0.1939253802303113,0.3500000000000001,-0.1614972681892761,0.3500000000000001,-0.1278041366016042,0.3500000000000001,-0.103691794066455
0.3600000000000002,-0.2009305258412502,0.3600000000000002,-0.1861245686663914,0.3600000000000002,-0.1537823357494204,0.3600000000000002,-0.1201862594332016,0.3600000000000002,-0.09614854685148323
0.3700000000000002,-0.1931063235207691,0.3700000000000002,-0.1783377373427313,0.3700000000000002,-0.1460815682911346,0.3700000000000002,-0.1125827018691502,0.3700000000000002,-0.08861969448464181
0.3800000000000002,-0.1852960949241511,0.3800000000000002,-0.170564975695589,0.3800000000000002,-0.1383950546838516,0.3800000000000002,-0.1049935522887248,0.3800000000000002,-0.08110532653013872
0.3900000000000002,-0.1774999299920972,0.3900000000000002,-0.1628063734792062,0.3900000000000002,-0.1307228840710075,0.3900000000000002,-0.09741889923160771,0.3900000000000002,-0.07360553241985578
0.4000000000000002,-0.1697179189935735,0.4000000000000002,-0.1550620207592204,0.4000000000000002,-0.123065145863938,0.4000000000000002,-0.08985883140118944,0.4000000000000002,-0.06612040148820224
0.4100000000000002,-0.1619501525191842,0.4100000000000002,-0.147332007905851,0.4100000000000002,-0.1154219297353601,0.4100000000000002,-0.08231343766611969,0.4100000000000002,-0.05865002300138616
0.4200000000000002,-0.1541967214743244,0.4200000000000002,-0.1396164255868692,0.4200000000000002,-0.107793325612528,0.4200000000000002,-0.07478280706035852,0.4200000000000002,-0.05119448618173622
0.4300000000000002,-0.1464577170721162,0.4300000000000002,-0.1319153647603229,0.4300000000000002,-0.1001794236700681,0.4300000000000002,-0.06726702878187737,0.4300000000000002,-0.04375388022774079
0.4400000000000002,-0.1387332308260985,0.4400000000000002,-0.1242289166670477,0.4400000000000002,-0.09258031432246568,0.4400000000000002,-0.05976619219020345,0.4400000000000002,-0.03632829433023441
0.4500000000000002,-0.1310233545427043,0.4500000000000002,-0.1165571728229404,0.4500000000000002,-0.0849960882162839,0.4500000000000002,-0.05228038680290108,0.4500000000000002,-0.02891781768529005
0.4600000000000002,-0.1233281803134956,0.4600000000000002,-0.1089002250110006,0.4600000000000002,-0.07742683622208266,0.4600000000000002,-0.04480970229112832,0.4600000000000002,-0.02152253950414621
0.4700000000000003,-0.1156478005071648,0.4700000000000003,-0.1012581652731386,0.4700000000000003,-0.06987264942605224,0.4700000000000003,-0.03735422847437397,0.4700000000000003,-0.01414254902052384
0.4800000000000003,-0.1079823077612857,0.4800000000000003,-0.09363108590174911,0.4800000000000003,-0.06233361912138809,0.4800000000000003,-0.0299140553144514,0.4800000000000003,-0.00677793549567071
0.4900000000000003,-0.1003317949738442,0.4900000000000003,-0.0860190794310413,0.4900000000000003,-0.05480983679939576,0.4900000000000003,-0.02248927290880502,0.4900000000000003,0.0005712832068599634
0.5000000000000002,-0.09269635529451889,0.5000000000000002,-0.07842223862813053,0.5000000000000002,-0.04730139414032792,0.5000000000000002,-0.01507997148324525,0.5000000000000002,0.007917604431968853
0.5100000000000002,-0.08507608211569083,0.5100000000000002,-0.0708406564839027,0.5100000000000002,-0.03980838300397556,0.5100000000000002,-0.00768624138408578,0.5100000000000002,0.0152702260985201
0.5200000000000002,-0.07747106906324412,0.5200000000000002,-0.06327442620359927,0.5200000000000002,-0.03233089541999374,0.5200000000000002,-0.0003081730698102973,0.5200000000000002,0.02262909955240349
0.5300000000000002,-0.06988140998707874,0.5300000000000002,-0.05572364119719623,0.5300000000000002,-0.02486902357799003,0.5300000000000002,0.007064440275225973,0.5300000000000002,0.02999417628628298
0.5400000000000003,-0.06230719895140104,0.5400000000000003,-0.04818839506951191,0.5400000000000003,-0.01742285981735516,0.5400000000000003,0.01444351270751136,0.5400000000000003,0.03736540841645172
0.5500000000000003,-0.054748530224728,0.5500000000000003,-0.04066878161006277,0.5500000000000003,-0.009992496616833624,0.5500000000000003,0.02182901013091737,0.5500000000000003,0.04474274866955476
0.5600000000000003,-0.04720549826965204,0.5600000000000003,-0.03316489478268905,0.5600000000000003,-0.002578026583879071,0.5600000000000003,0.02922088151235347,0.5600000000000003,0.05212615036992521
0.5700000000000003,-0.03967819773235375,0.5700000000000003,-0.0256768287149017,0.5700000000000003,0.004825345910283317,0.5700000000000003,0.03661907652152392,0.5700000000000003,0.05951556742748992
0.5800000000000003,-0.03216672343182404,0.5800000000000003,-0.01820467768698818,0.5800000000000003,0.01223410765641809,0.5800000000000003,0.04402354546558292,0.5800000000000003,0.06691095432618513
0.5900000000000003,-0.02467117034884331,0.5900000000000003,-0.01074853612086117,0.5900000000000003,0.01964956345930412,0.5900000000000003,0.05143423927826684,0.5900000000000003,0.07431226611284837
0.6000000000000003,-0.01719163361469907,0.6000000000000003,-0.003308498568655676,0.6000000000000003,0.02707165822023562,0.6000000000000003,0.0588511095092869,0.6000000000000003,0.08171945838654868
0.6100000000000003,-0.009728208499619617,0.6100000000000003,0.004118958797508556,0.6100000000000003,0.03450033758832621,0.6100000000000003,0.06627410831396771,0.6100000000000003,0.08913248728831456
0.6200000000000003,-0.002280990400943869,0.6200000000000003,0.01155114742010989,0.6200000000000003,0.04193554793151798,0.6200000000000003,0.07370318844310747,0.6200000000000003,0.09655130949123887
0.6300000000000003,0.005155618727694248,0.6300000000000003,0.01899028868853083,0.6300000000000003,0.04937723632398707,0.6300000000000003,0.08113830323306617,0.6300000000000003,0.1039758821909178
0.6400000000000003,0.01259826327652785,0.6400000000000003,0.02643632371357981,0.6400000000000003,0.05682535053382189,0.6400000000000003,0.08857940659607885,0.6400000000000003,0.1114061630962169
0.6500000000000004,0.02004796844107386,0.6500000000000004,0.03388919431345554,0.6500000000000004,0.06427983901095601,0.6500000000000004,0.0960264530107648,0.6500000000000004,0.1188421104203312
0.6600000000000004,0.02750467352013713,0.6600000000000004,0.04134884310826324,0.6600000000000004,0.0717406508753527,0.6600000000000004,0.1034793975128386,0.6600000000000004,0.1262836828721089
0.6700000000000004,0.03496831875503038,0.6700000000000004,0.04881521350528154,0.6700000000000004,0.07920773590543127,0.6700000000000004,0.1109381956860156,0.6700000000000004,0.1337308396476605
0.6800000000000004,0.04243884522496517,0.6800000000000004,0.05628824968455787,0.6800000000000004,0.08668104452674984,0.6800000000000004,0.1184028036531194,0.6800000000000004,0.1411835404221764
0.6900000000000004,0.04991619483136836,0.6900000000000004,0.06376789658483874,0.6900000000000004,0.09416052780089947,0.6900000000000004,0.1258731780673409,0.6900000000000004,0.1486417453420027
0.7000000000000004,0.05740031028255827,0.7000000000000004,0.07125409988979287,0.7000000000000004,0.1016461374146517,0.7000000000000004,0.1333492761037116,0.7000000000000004,0.1561054150168968
0.7100000000000004,0.06489113507877248,0.7100000000000004,0.07874680601455485,0.7100000000000004,0.1091378256693105,0.7100000000000004,0.1408310554507197,0.7100000000000004,0.163574510512522
0.7200000000000004,0.07238861349753815,0.7200000000000004,0.0862459620925666,0.7200000000000004,0.1166355454703016,0.7200000000000004,0.148318474302103,0.7200000000000004,0.171048993343102
0.7300000000000004,0.07989269057936935,0.7300000000000004,0.09375151596269858,0.7300000000000004,0.1241392503169561,0.7300000000000004,0.1558114913488096,0.7300000000000004,0.1785288254642668
0.7400000000000004,0.08740331211379565,0.7400000000000004,0.1012634161566635,0.7400000000000004,0.1316488942925172,0.7400000000000004,0.1633100657711078,0.7400000000000004,0.1860139692660754
0.7500000000000004,0.09492042462570247,0.7500000000000004,0.1087816118867046,0.7500000000000004,0.1391644320543554,0.7500000000000004,0.170814157230857,0.7500000000000004,0.1935043875661887
0.7600000000000005,0.1024439753619756,0.7600000000000005,0.1163060530335475,0.7600000000000005,0.146685818824363,0.7600000000000005,0.1783237258639256,0.7600000000000005,0.2010000436032146
0.7700000000000005,0.1099739122784505,0.7700000000000005,0.1238366901346242,0.7700000000000005,0.1542130103795627,0.7700000000000005,0.1858387322727527,0.7700000000000005,0.2085009010301872
0.7800000000000005,0.1175101840271437,0.7800000000000005,0.1313734743725352,0.7800000000000005,0.1617459630428998,0.7800000000000005,0.1933591375190635,0.7800000000000005,0.2160069239081933
0.7900000000000005,0.1250527399437798,0.7900000000000005,0.1389163575637803,0.7900000000000005,0.1692846336742164,0.7900000000000005,0.2008849031167055,0.7900000000000005,0.2235180767001352
0.8000000000000005,0.132601530035581,0.8000000000000005,0.1464652921477189,0.8000000000000005,0.1768289796614217,0.8000000000000005,0.2084159910246442,0.8000000000000005,0.2310343242646317
0.8100000000000005,0.1401565049693363,0.8100000000000005,0.1540202311757714,0.8100000000000005,0.1843789589118174,0.8100000000000005,0.2159523636400699,0.8100000000000005,0.2385556318500333
0.8200000000000005,0.1477176160597294,0.8200000000000005,0.1615811283008554,0.8200000000000005,0.1919345298436186,0.8200000000000005,0.2234939837916502,0.8200000000000005,0.2460819650885661
0.8300000000000005,0.1552848152579171,0.8300000000000005,0.1691479377670325,0.8300000000000005,0.1994956513776303,0.8300000000000005,0.2310408147329016,0.8300000000000005,0.2536132899905925
0.8400000000000005,0.1628580551403588,0.8400000000000005,0.1767206143993947,0.8400000000000005,0.2070622829290965,0.8400000000000005,0.2385928201356873,0.8400000000000005,0.2611495729389848
0.8500000000000005,0.1704372888978986,0.8500000000000005,0.184299113594151,0.8500000000000005,0.2146343843997091,0.8500000000000005,0.2461499640838379,0.8500000000000005,0.2686907806836073
0.8600000000000005,0.1780224703250616,0.8600000000000005,0.191883391308922,0.8600000000000005,0.2222119161697786,0.8600000000000005,0.2537122110668895,0.8600000000000005,0.2762368803359142
0.8700000000000006,0.1856135538096034,0.8700000000000006,0.1994734040532487,0.8700000000000006,0.2297948390905493,0.8700000000000006,0.2612795259739342,0.8700000000000006,0.2837878393636271
0.8800000000000006,0.1932104943222681,0.8800000000000006,0.2070691088792883,0.8800000000000006,0.2373831144766778,0.8800000000000006,0.2688518740875973,0.8800000000000006,0.2913436255855449
0.8900000000000006,0.2008132474067688,0.8900000000000006,0.2146704633727137,0.8900000000000006,0.2449767040988522,0.8900000000000006,0.2764292210781049,0.8900000000000006,0.2989042071664251
0.9000000000000006,0.2084217691699871,0.9000000000000006,0.2222774256437904,0.9000000000000006,0.2525755701765618,0.9000000000000006,0.2840115329974808,0.9000000000000006,0.3064695526119736
0.9100000000000006,0.2160360162723717,0.9100000000000006,0.2298899543186493,0.9100000000000006,0.2601796753709985,0.9100000000000006,0.2915987762738373,0.9100000000000006,0.3140396307639176
0.9200000000000006,0.2236559459185437,0.9200000000000006,0.2375080085307308,0.9200000000000006,0.2677889827781029,0.9200000000000006,0.2991909177057741,0.9200000000000006,0.3216144107951822
0.9300000000000006,0.2312815158480997,0.9300000000000006,0.2451315479124113,0.9300000000000006,0.2754034559217474,0.9300000000000006,0.3067879244568814,0.9300000000000006,0.3291938622051352
0.9400000000000006,0.2389126843266117,0.9400000000000006,0.2527605325867953,0.9400000000000006,0.2830230587470459,0.9400000000000006,0.3143897640503364,0.9400000000000006,0.3367779548149336
0.9500000000000006,0.2465494101367948,0.9500000000000006,0.2603949231596773,0.9500000000000006,0.2906477556137902,0.9500000000000006,0.3219964043636102,0.9500000000000006,0.3443666587629487
0.9600000000000006,0.2541916525698941,0.9600000000000006,0.2680346807116651,0.9600000000000006,0.2982775112900257,0.9600000000000006,0.3296078136232449,0.9600000000000006,0.3519599445002612
0.9700000000000006,0.2618393714172078,0.9700000000000006,0.2756797667904646,0.9700000000000006,0.3059122909457331,0.9700000000000006,0.3372239603997674,0.9700000000000006,0.3595577827862617
0.9800000000000006,0.2694925269618222,0.9800000000000006,0.2833301434033196,0.9800000000000006,0.31355206014664,0.9800000000000006,0.3448448136026394,0.9800000000000006,0.3671601446842999
0.9900000000000007,0.2771510799704909,0.9900000000000007,0.2909857730095973,0.9900000000000007,0.3211967848481507,0.9900000000000007,0.3524703424753525,0.9900000000000007,0.3747670015574254
1.000000000000001,0.2848149916856945,1.000000000000001,0.2986466185135405,1.000000000000001,0.3288464313893943,1.000000000000001,0.3601005165905743,1.000000000000001,0.3823783250642032
1.010000000000001,0.2924842238178483,1.010000000000001,0.3063126432571334,1.010000000000001,0.3365009664873692,1.010000000000001,0.3677353058453883,1.010000000000001,0.3899940871545931
1.020000000000001,0.300158738537691,1.020000000000001,0.3139838110131391,1.020000000000001,0.3441603572312178,1.020000000000001,0.3753746804566341,1.020000000000001,0.3976142600659082
1.030000000000001,0.3078384984687987,1.030000000000001,0.3216600859782571,1.030000000000001,0.3518245710765959,1.030000000000001,0.3830186109563086,1.030000000000001,0.4052388163188414
1.040000000000001,0.3155234666802694,1.040000000000001,0.329341432766423,1.040000000000001,0.3594935758401578,1.040000000000001,0.3906670681870612,1.040000000000001,0.4128677287135535
1.050000000000001,0.3232136066795501,1.050000000000001,0.3370278164022339,1.050000000000001,0.3671673396941313,1.050000000000001,0.3983200232977672,1.050000000000001,0.4205009703258389
1.060000000000001,0.3309088824054039,1.060000000000001,0.3447192023145088,1.060000000000001,0.3748458311610026,1.060000000000001,0.4059774477391749,1.060000000000001,0.4281385145033415
1.070000000000001,0.338609258221015,1.070000000000001,0.3524155563299717,1.070000000000001,0.3825290191082997,1.070000000000001,0.413639313259631,1.070000000000001,0.4357803348618547
1.080000000000001,0.3463146989072429,1.080000000000001,0.3601168446670541,1.080000000000001,0.3902168727434708,1.080000000000001,0.4213055919008826,1.080000000000001,0.4434264052816593
