;Version, 1, 0
;/M0/D (len=1.8e-07),;/M0/D (len=2.2e-07),;/M0/D (len=2.5e-07),;/M0/D (len=2.9e-07),;/M0/D (len=3.25e-07),;/M0/D (len=3.6e-07),;/M0/D (len=4.3e-07),;/M0/D (len=5e-07),;/M0/D (len=5.75e-07),;/M0/D (len=6.5e-07),;/M0/D (len=7.2e-07)
;X, Y,;X, Y,;X, Y,;X, Y,;X, Y,;X, Y,;X, Y,;X, Y,;X, Y,;X, Y,;X, Y
;Re, Re,;Re, Re,;Re, Re,;Re, Re,;Re, Re,;Re, Re,;Re, Re,;Re, Re,;Re, Re,;Re, Re,;Re, Re
;VG, I,;VG, I,;VG, I,;VG, I,;VG, I,;VG, I,;VG, I,;VG, I,;VG, I,;VG, I,;VG, I
;xunit, A,;xunit, A,;xunit, A,;xunit, A,;xunit, A,;xunit, A,;xunit, A,;xunit, A,;xunit, A,;xunit, A,;xunit, A
0,9.651414650119206e-12,0,5.948569138354912e-12,0,4.934553498236668e-12,0,4.275823700097478e-12,0,3.964034965076371e-12,0,3.76564662156291e-12,0,3.530846079922989e-12,0,3.398704793078008e-12,0,3.450934335383696e-12,0,3.490405691254986e-12,0,3.517300979551802e-12
0.025,1.611558979535313e-11,0.025,8.814123269409609e-12,0.025,6.814340593233558e-12,0.025,5.515139310271612e-12,0.025,4.900173053361236e-12,0.025,4.50886366202941e-12,0.025,4.045719694292308e-12,0.025,3.785063264051684e-12,0.025,3.888068396193505e-12,0.025,3.965904482546722e-12,0.025,4.018934630912143e-12
0.05,2.88578945782223e-11,0.05,1.44641652672281e-11,0.05,1.052108761532562e-11,0.05,7.959127097117684e-12,0.05,6.746358966780445e-12,0.05,5.974629003781444e-12,0.05,5.06119097465895e-12,0.05,4.547088688488402e-12,0.05,4.75019299390773e-12,0.05,4.903647494940142e-12,0.05,5.008179414861155e-12
0.07500000000000001,5.396611662457217e-11,0.07500000000000001,2.560124508139319e-11,0.07500000000000001,1.782861457601887e-11,0.07500000000000001,1.277774575706159e-11,0.07500000000000001,1.038655504246073e-11,0.07500000000000001,8.86485903328429e-12,0.07500000000000001,7.063638604591141e-12,0.07500000000000001,6.049815052829332e-12,0.07500000000000001,6.450187274214118e-12,0.07500000000000001,6.752626568282971e-12,0.07500000000000001,6.95859751915653e-12
0.1,1.034142426170168e-10,0.1,4.754534318063198e-11,0.1,3.222978819945989e-11,0.1,2.227536124737571e-11,0.1,1.75620689041488e-11,0.1,1.456239071891027e-11,0.1,1.101140421680577e-11,0.1,9.012557560791454e-12,0.1,9.801502685255305e-12,0.1,1.039730250342137e-11,0.1,1.080292864560879e-11
0.125,2.007239348830111e-10,0.125,9.075904500251829e-11,0.125,6.059690202077857e-11,0.125,4.098745182617466e-11,0.125,3.170083387139045e-11,0.125,2.578985836403013e-11,0.125,1.879171028236211e-11,0.125,1.485201749155008e-11,0.125,1.640584436218275e-11,0.125,1.75788151088466e-11,0.125,1.837701852709111e-11
0.15,3.920193450808258e-10,0.15,1.75791691689974e-10,0.15,1.164359759977933e-10,0.15,7.78318940443709e-11,0.15,5.954487023537428e-11,0.15,4.790316957721714e-11,0.15,3.411807102149699e-11,0.15,2.635636464304798e-11,0.15,2.941438560410044e-11,0.15,3.172160237013759e-11,0.15,3.329064891585038e-11
0.175,7.675233599614081e-10,0.175,3.429298818778532e-10,0.175,2.262480390910847e-10,0.175,1.50319006771011e-10,0.175,1.143372730489253e-10,0.175,9.142564738299867e-11,0.175,6.428960316714624e-11,0.175,4.900729523101257e-11,0.175,5.501949456893142e-11,0.175,5.955212447327883e-11,0.175,6.263181498109849e-11
0.2,1.503115270469433e-09,0.2,6.709532512392115e-10,0.2,4.419173243671988e-10,0.2,2.927635779651027e-10,0.2,2.220443149985672e-10,0.2,1.769987841362334e-10,0.2,1.23631137204365e-10,0.2,9.356670127217415e-11,0.2,1.053700380237403e-10,0.2,1.142591623118472e-10,0.2,1.202912725337187e-10
0.225,2.940026937199672e-09,0.225,1.31336830337135e-09,0.225,8.647112046710657e-10,0.225,5.722300149238728e-10,0.225,4.334520555132614e-10,0.225,3.450159485877715e-10,0.225,2.401957387615097e-10,0.225,1.811206158480402e-10,0.225,2.042471233134373e-10,0.225,2.216378830692589e-10,0.225,2.334184201837977e-10
0.25,5.73598480216889e-09,0.25,2.567827939068747e-09,0.25,1.691441110579779e-09,0.25,1.119296804795809e-09,0.25,8.475464544876241e-10,0.25,6.742658582702914e-10,0.25,4.687582683687363e-10,0.25,3.528688536334274e-10,0.25,3.980556897977432e-10,0.25,4.319652051829447e-10,0.25,4.548792996959468e-10
0.275,1.114750051296537e-08,0.275,5.007615325636354e-09,0.275,3.302366367529647e-09,0.275,2.186894587081395e-09,0.275,1.656337433837922e-09,0.275,1.317738427607889e-09,0.275,9.158305906393895e-10,0.275,6.890025434214726e-10,0.275,7.76955292813493e-10,0.275,8.427683437326051e-10,0.275,8.870894648242401e-10
0.3,2.154628833888517e-08,0.3,9.72681183449206e-09,0.3,6.426317611542368e-09,0.3,4.261488533776282e-09,0.3,3.229843646922223e-09,0.3,2.570675719607906e-09,0.3,1.7873628703997e-09,0.3,1.344781957794663e-09,0.3,1.515075914164937e-09,0.3,1.641998841475729e-09,0.3,1.727070274548999e-09
0.325,4.133817968658992e-08,0.325,1.878788714061446e-08,0.325,1.244518782947717e-08,0.325,8.269762273134786e-09,0.325,6.274798112864434e-09,0.325,4.998074749952337e-09,0.325,3.478526212287946e-09,0.325,2.618649355207838e-09,0.325,2.946014386400947e-09,0.325,3.1886821378254e-09,0.325,3.350274737323276e-09
0.35,7.854028015462024e-08,0.35,3.601630876741727e-08,0.35,2.394175878346167e-08,0.35,1.595451818510831e-08,0.35,1.212506572816804e-08,0.35,9.669047659787457e-09,0.35,6.739757723075364e-09,0.35,5.078719141447966e-09,0.35,5.70198201063606e-09,0.35,6.160592454721078e-09,0.35,6.463264518046581e-09
0.3750000000000001,1.473683591497776e-07,0.3750000000000001,6.836146400374863e-08,0.3750000000000001,4.5654355198681e-08,0.3750000000000001,3.053907850352136e-08,0.3750000000000001,2.325912131522642e-08,0.3750000000000001,1.857687978239862e-08,0.3750000000000001,1.29768082342521e-08,0.3750000000000001,9.792607018968731e-09,0.3750000000000001,1.096416499290251e-08,0.3750000000000001,1.181773164631891e-08,0.3750000000000001,1.23742814334585e-08
0.4000000000000001,2.722637829664645e-07,0.4000000000000001,1.281275017098242e-07,0.4000000000000001,8.607583651160268e-08,0.4000000000000001,5.786022695707756e-08,0.4000000000000001,4.419160572441842e-08,0.4000000000000001,3.536822508026468e-08,0.4000000000000001,2.477710132393452e-08,0.4000000000000001,1.873347867009776e-08,0.4000000000000001,2.089967785825258e-08,0.4000000000000001,2.245748414830213e-08,0.4000000000000001,2.345689131060331e-08
0.4250000000000001,4.938331627476388e-07,0.4250000000000001,2.364553116200491e-07,0.4250000000000001,1.600124995315038e-07,0.4250000000000001,1.082203305413566e-07,0.4250000000000001,8.294913140976772e-08,0.4250000000000001,6.656132059905036e-08,0.4250000000000001,4.68004961181962e-08,0.4250000000000001,3.547326415587539e-08,0.4250000000000001,3.939705184533655e-08,0.4250000000000001,4.21719996364965e-08,0.4250000000000001,4.391477594350505e-08
0.4500000000000001,8.772610660051792e-07,0.4500000000000001,4.285127858547121e-07,0.4500000000000001,2.924968430809794e-07,0.4500000000000001,1.992848745354386e-07,0.4500000000000001,1.534111585417772e-07,0.4500000000000001,1.234983612753798e-07,0.4500000000000001,8.722795498239818e-08,0.4500000000000001,6.632146654272944e-08,0.4500000000000001,7.325720630077551e-08,0.4500000000000001,7.806131997414557e-08,0.4500000000000001,8.099725625140627e-08
0.4750000000000001,1.524116145967884e-06,0.4750000000000001,7.610114551438753e-07,0.4750000000000001,5.24572224353627e-07,0.4750000000000001,3.604548745333657e-07,0.4750000000000001,2.788889295358859e-07,0.4750000000000001,2.253607377589979e-07,0.4750000000000001,1.60031849683209e-07,0.4750000000000001,1.221282428935039e-07,0.4750000000000001,1.3405799065976e-07,0.4750000000000001,1.421188107599158e-07,0.4750000000000001,1.468801840243176e-07
0.5000000000000001,2.589294191115253e-06,0.5000000000000001,1.323089009449838e-06,0.5000000000000001,9.21764870530387e-07,0.5000000000000001,6.393604126429834e-07,0.5000000000000001,4.974932098842669e-07,0.5000000000000001,4.037275424138105e-07,0.5000000000000001,2.884496832644575e-07,0.5000000000000001,2.210671382458298e-07,0.5000000000000001,2.410190421409885e-07,0.5000000000000001,2.541237633092471e-07,0.5000000000000001,2.61551167586637e-07
0.5250000000000001,4.305660122425542e-06,0.5250000000000001,2.252285278980058e-06,0.5250000000000001,1.586607860010134e-06,0.5250000000000001,1.11154483231013e-06,0.5250000000000001,8.701925671891488e-07,0.5250000000000001,7.094569391051453e-07,0.5250000000000001,5.102727511492764e-07,0.5250000000000001,3.928980851417089e-07,0.5250000000000001,4.253943773676493e-07,0.5250000000000001,4.460781737968218e-07,0.5250000000000001,4.572321606978382e-07
0.5500000000000002,7.018101827824244e-06,0.5500000000000002,3.757565362269129e-06,0.5500000000000002,2.67697290021102e-06,0.5500000000000002,1.894831390076288e-06,0.5500000000000002,1.492867697378037e-06,0.5500000000000002,1.223046235372517e-06,0.5500000000000002,8.858830263903612e-07,0.5500000000000002,6.854877965543397e-07,0.5500000000000002,7.371502466758786e-07,0.5500000000000002,7.688857825366063e-07,0.5500000000000002,7.849629058299538e-07
0.5750000000000002,1.122400339644473e-05,0.5750000000000002,6.149434571142607e-06,0.5750000000000002,4.43091398443947e-06,0.5750000000000002,3.169355667673049e-06,0.5750000000000002,2.513398305680024e-06,0.5750000000000002,2.069498174312512e-06,0.5750000000000002,1.50998947212248e-06,0.5750000000000002,1.174448091461301e-06,0.5750000000000002,1.254539977222227e-06,0.5750000000000002,1.301615407647061e-06,0.5750000000000002,1.323451280876775e-06
0.6000000000000002,1.760806161744936e-05,0.6000000000000002,9.871686540579201e-06,0.6000000000000002,7.194712640042154e-06,0.6000000000000002,5.201407536970643e-06,0.6000000000000002,4.152614944923775e-06,0.6000000000000002,3.436956184734076e-06,0.6000000000000002,2.526813510971809e-06,0.6000000000000002,1.975890408611574e-06,0.6000000000000002,2.095917464314848e-06,0.6000000000000002,2.162160005362146e-06,0.6000000000000002,2.188632549179944e-06
0.6250000000000002,2.704958349700725e-05,0.6250000000000002,1.552131551312229e-05,0.6250000000000002,1.14440880187012e-05,0.6250000000000002,8.363773347821644e-06,0.6250000000000002,6.723304267901396e-06,0.6250000000000002,5.594349218291229e-06,0.6250000000000002,4.145344598375841e-06,0.6250000000000002,3.259774990995292e-06,0.6250000000000002,3.430423980450511e-06,0.6250000000000002,3.515462189713151e-06,0.6250000000000002,3.539920903640566e-06
0.6500000000000002,4.057852057889836e-05,0.6500000000000002,2.38378277591736e-05,0.6500000000000002,1.778294032960722e-05,0.6500000000000002,1.31399323348439e-05,0.6500000000000002,1.063647652891672e-05,0.6500000000000002,8.898663532022357e-06,0.6500000000000002,6.647289072604054e-06,0.6500000000000002,5.257841188996865e-06,0.6500000000000002,5.481369909785708e-06,0.6500000000000002,5.573430325887604e-06,0.6500000000000002,5.577750605265508e-06
0.6750000000000003,5.927138683642839e-05,0.6750000000000003,3.564816057298846e-05,0.6750000000000003,2.690602726966655e-05,0.6750000000000003,2.009967925472009e-05,0.6750000000000003,1.638354519177032e-05,0.6750000000000003,1.378145250725237e-05,0.6750000000000003,1.037887698385847e-05,0.6750000000000003,8.258461506658498e-06,0.6750000000000003,8.516118875331426e-06,0.6750000000000003,8.581868695178613e-06,0.6750000000000003,8.528984420640658e-06
0.7000000000000003,8.410791270880313e-05,0.7000000000000003,5.177166641296079e-05,0.7000000000000003,3.952545393356055e-05,0.7000000000000003,2.984350467869605e-05,0.7000000000000003,2.449082259906431e-05,0.7000000000000003,2.071055209924415e-05,0.7000000000000003,1.572220860059826e-05,0.7000000000000003,1.258411600462343e-05,0.7000000000000003,1.2821076372586e-05,0.7000000000000003,1.279513902996008e-05,0.7000000000000003,1.262226275396982e-05
0.7250000000000003,0.0001158349454711396,0.7250000000000003,7.291217126775795e-05,0.7250000000000003,5.628018094575654e-05,0.7250000000000003,4.292901780181627e-05,0.7250000000000003,3.545652712594738e-05,0.7250000000000003,3.013510370004838e-05,0.7250000000000003,2.305158022189273e-05,0.7250000000000003,1.855530741701611e-05,0.7250000000000003,1.866806624527943e-05,0.7250000000000003,1.844595594178895e-05,0.7250000000000003,1.806102331534907e-05
0.7500000000000003,0.000154884017382418,0.7500000000000003,9.957382508729667e-05,0.7500000000000003,7.76589574059284e-05,0.7500000000000003,5.98038021540212e-05,0.7500000000000003,4.969100849766267e-05,0.7500000000000003,4.243184088414621e-05,0.7500000000000003,3.268890948409644e-05,0.7500000000000003,2.645247616673927e-05,0.7500000000000003,2.628346944079587e-05,0.7500000000000003,2.572064445937975e-05,0.7500000000000003,2.500333549203904e-05
0.7750000000000004,0.0002013620168524299,0.7750000000000004,0.0001320256241962028,0.7750000000000004,0.0001039605855243626,0.7750000000000004,8.076615371110116e-05,0.7750000000000004,6.747956743816545e-05,0.7750000000000004,5.787023597579896e-05,0.7750000000000004,4.487309241522444e-05,0.7750000000000004,3.648873668507464e-05,0.7750000000000004,3.58299097371095e-05,0.7750000000000004,3.474703524898148e-05,0.7750000000000004,3.355381656191313e-05
0.8000000000000004,0.0002551017609961818,0.8000000000000004,0.0001703156949412179,0.8000000000000004,0.0001352965572180342,0.8000000000000004,0.0001059606527512635,0.8000000000000004,8.897528126934716e-05,0.8000000000000004,7.660396443567505e-05,0.8000000000000004,5.975045017021942e-05,0.8000000000000004,4.8800176136789e-05,0.8000000000000004,4.740353175978013e-05,0.8000000000000004,4.559571999497095e-05,0.8000000000000004,4.376701743924645e-05
0.8250000000000004,0.0003157420438956309,0.8250000000000004,0.000214317971934613,0.8250000000000004,0.0001716241140707998,0.8250000000000004,0.0001354007356042074,0.8250000000000004,0.0001142161088115645,0.8250000000000004,9.868435454106306e-05,0.8250000000000004,7.738365002647495e-05,0.8250000000000004,6.345210879040224e-05,0.8250000000000004,6.104328714253702e-05,0.8250000000000004,5.829033908225261e-05,0.8250000000000004,5.565779678556003e-05
0.8500000000000004,0.0003828087025182274,0.8500000000000004,0.0002637893470976172,0.8500000000000004,0.0002127917005711023,0.8500000000000004,0.0001690039052790404,0.8500000000000004,0.0001431541438630843,0.8500000000000004,0.0001240853441745681,0.8500000000000004,9.777090198820802e-05,0.8500000000000004,8.04545896250196e-05,0.8500000000000004,7.674583083782528e-05,0.8500000000000004,7.282120316068111e-05,0.8500000000000004,6.921367418077352e-05
0.8750000000000004,0.0004557800702911992,0.8750000000000004,0.0003184212701251246,0.8750000000000004,0.0002585823322841191,0.8750000000000004,0.000206627079843563,0.8750000000000004,0.0001756859357248706,0.8750000000000004,0.0001527300096180741,0.8750000000000004,0.0001208671944397074,0.8750000000000004,9.978013940380181e-05,0.8750000000000004,9.448052380951489e-05,0.8750000000000004,8.915797031268467e-05,0.8750000000000004,8.440574856611472e-05
0.9000000000000005,0.0005341318858590281,0.9000000000000005,0.0003778785213823767,0.9000000000000005,0.0003087474655783763,0.9000000000000005,0.0002480951050963609,0.9000000000000005,0.000211677408205348,0.9000000000000005,0.0001845126759564931,0.9000000000000005,0.0001466023673982869,0.9000000000000005,0.0001213790761137909,0.9000000000000005,0.0001142014952725897,0.9000000000000005,0.0001072593312857166,0.9000000000000005,0.0001011967464524214
0.9250000000000005,0.0006173638393246856,0.9250000000000005,0.0004418244632416966,0.9250000000000005,0.0003630298357372469,0.9250000000000005,0.0002932204911210001,0.9250000000000005,0.0002509813497459105,0.9250000000000005,0.0002193145879717888,0.9250000000000005,0.0001748940989075266,0.9250000000000005,0.0001451906437807035,0.9250000000000005,0.0001358559228222521,0.9250000000000005,0.0001270793833777158,0.9250000000000005,0.0001195461545039595
0.9500000000000005,0.0007050125994370847,0.9500000000000005,0.0005099353339124621,0.9500000000000005,0.0004211769265850467,0.9500000000000005,0.0003418153729013441,0.9500000000000005,0.000293448147665858,0.9500000000000005,0.0002570136052286592,0.9500000000000005,0.0002056560208025667,0.9500000000000005,0.0001711500157801866,0.9500000000000005,0.0001593889686694463,0.9500000000000005,0.0001485712636543209,0.9500000000000005,0.0001394130411194691
0.9750000000000005,0.0007966561523829723,0.9750000000000005,0.0005819069497198167,0.9750000000000005,0.0004829477392329575,0.9750000000000005,0.0003936977594181461,0.9750000000000005,0.0003389314835554516,0.9750000000000005,0.0002974893888610871,0.9750000000000005,0.000238802096749166,0.9750000000000005,0.0001991920903011152,0.9750000000000005,0.0001847462716348237,0.9750000000000005,0.0001716888637868133,0.9750000000000005,0.0001607573089704604
1,0.0008919131991633928,1,0.0006574567502342065,1,0.0005481153367638185,1,0.0004486941075880813,1,0.0003872907505057632,1,0.0003406256322302419,1,0.0002742485214212057,1,0.0002292531398494138,1,0.0002118748815631559,1,0.0001963873670277505,1,0.00018354001083973
1.025,0.0009904401293675228,1.025,0.0007363233123090347,1.025,0.0006164670242406623,1.025,0.000506639798458867,1.025,0.0004383915819449864,1.025,0.0003863105783344463,1.025,0.0003119141709239453,1.025,0.0002612711984430644,1.025,0.0002407233226284369,1.025,0.0002226231541687407,1.025,0.0002077231811638278
1.05,0.001091927090920651,1.05,0.000818264698076987,1.05,0.0006878033891866498,1.05,0.0005673785776130104,1.05,0.0004921054393556366,1.05,0.0004344366789527191,1.05,0.0003517203227431201,1.05,0.0002951858089988014,1.05,0.0002712412469498944,1.05,0.0002503534339182613,1.05,0.0002332694703693534
1.075,0.001196093983252471,1.075,0.0009030564292286633,1.075,0.0007619369302429932,1.075,0.0006307616018872451,1.075,0.0005483088372768836,1.075,0.0004848999213049022,1.075,0.0003935900915334219,1.075,0.000330937520724805,1.075,0.0003033789562425297,1.075,0.0002795358051315689,1.075,0.000260141745635745
1.1,0.001302686768661795,1.1,0.0009904894998763525,1.1,0.0008386906625487247,1.1,0.0006966464414394904,1.1,0.0006068825229100594,1.1,0.0005375991125737102,1.1,0.000437447829562806,1.1,0.0003684673554167222,1.1,0.0003370869406943057,1.1,0.0003101278581335769,1.1,0.0002883027400197655
1.125,0.001411474248377446,1.125,0.001080368610353792,1.125,0.0009178968786015924,1.125,0.0007648962015858308,1.125,0.0006677107614636781,1.125,0.0005924352616262882,1.125,0.0004832186125566011,1.125,0.0004077163498279822,1.125,0.0003723155031463663,1.125,0.0003420868607564097,1.125,0.0003177147825666387
1.15,0.001522245319666892,1.15,0.001172510676528658,1.15,0.0009993961242737435,1.15,0.0008353788222516256,1.15,0.0007306807815263287,1.15,0.0006493111086647597,1.15,0.000530827855804404,1.15,0.0004486252146286364,1.15,0.0004090144898021057,1.15,0.0003753695400304671,1.15,0.000348339614829743
1.175,0.001634806670254914,1.175,0.001266743605113958,1.175,0.001083036388358989,1.175,0.0009079665569592955,1.175,0.0007956823834083266,1.175,0.0007081308062028512,1.175,0.000580201064426502,1.175,0.0004911341142073889,1.175,0.0004471331241844743,1.175,0.0004099319529391923,1.175,0.0003801382858644089
1.2,0.001748980844919559,1.2,0.001362905298286309,1.2,0.001168672476895166,1.2,0.0009825356077947035,1.2,0.0008626076896410068,1.2,0.0007687997326333183,1.2,0.0006312637022442286,1.2,0.0005351825541621116,1.2,0.0004866199300411579,1.2,0.0004457294322638566,1.2,0.0004130711124699638
1.225,0.001864604617392882,1.225,0.001460842843592511,1.225,0.001256165535141648,1.225,0.001058965884322907,1.225,0.0009313510086353536,1.225,0.0008312244118273771,1.225,0.000683941156573311,1.225,0.000580709356782536,1.225,0.0005274227254427031,1.225,0.0004827165917255988,1.225,0.0004470976905098814
1.25,0.001981527607734657,1.25,0.001560411847468264,1.25,0.001345382681130139,1.25,0.001137140854658263,1.25,0.001001808782374659,1.25,0.0008953125118549257,1.25,0.0007381587756422214,1.25,0.0006276527040679966,1.25,0.000569488670746807,1.25,0.0005208473755797991,1.25,0.000482176944298679
