;Version, 1, 0
;/M0/D (VB=-0.9),;/M0/D (VB=-0.8),;/M0/D (VB=-0.7),;/M0/D (VB=-0.6),;/M0/D (VB=-0.5),;/M0/D (VB=-0.4),;/M0/D (VB=-0.3),;/M0/D (VB=-0.2),;/M0/D (VB=-0.1),;/M0/D (VB=-1.387779e-16)
;X, Y,;X, Y,;X, Y,;X, Y,;X, Y,;X, Y,;X, Y,;X, Y,;X, Y,;X, Y
;Re, Re,;Re, Re,;Re, Re,;Re, Re,;Re, Re,;Re, Re,;Re, Re,;Re, Re,;Re, Re,;Re, Re
;VG, I,;VG, I,;VG, I,;VG, I,;VG, I,;VG, I,;VG, I,;VG, I,;VG, I,;VG, I
;xunit, A,;xunit, A,;xunit, A,;xunit, A,;xunit, A,;xunit, A,;xunit, A,;xunit, A,;xunit, A,;xunit, A
0,1.001514268991256e-12,0,9.015430520786035e-13,0,8.016139716669453e-13,0,7.017927625951859e-13,0,6.022549250077986e-13,0,5.034825019669341e-13,0,4.068415831277265e-13,0,3.16337757651588e-13,0,2.441578594508729e-13,0,2.288556840982967e-13
0.025,1.001536656334518e-12,0.025,9.015959067563499e-13,0.025,8.017412925373494e-13,0.025,7.021062126310273e-13,0.025,6.030449465659727e-13,0.025,5.055252094291916e-13,0.025,4.122726875559497e-13,0.025,3.312267048420632e-13,0.025,2.863762858570465e-13,0.025,3.531336575157491e-13
0.05,1.001583032308777e-12,0.05,9.017049942070122e-13,0.05,8.020030376879679e-13,0.05,7.02747816946415e-13,0.05,6.046544497799938e-13,0.05,5.096652822855088e-13,0.05,4.232171567091204e-13,0.05,3.610376808348022e-13,0.05,3.702923868978228e-13,0.05,5.98087817875801e-13
0.07500000000000001,1.001679102085217e-12,0.07500000000000001,9.019301431299371e-13,0.07500000000000001,8.025411159261206e-13,0.07500000000000001,7.040610929506279e-13,0.07500000000000001,6.079333445916441e-13,0.07500000000000001,5.180556877752345e-13,0.07500000000000001,4.452696890608267e-13,0.07500000000000001,4.207164316485871e-13,0.07500000000000001,5.370466616539603e-13,0.07500000000000001,1.080692776478372e-12
0.1,1.00187811255032e-12,0.1,9.023948274844324e-13,0.1,8.036472346772826e-13,0.1,7.067490897979343e-13,0.1,6.146127597075935e-13,0.1,5.350584464410196e-13,0.1,4.896981663310157e-13,0.1,5.401609250487181e-13,0.1,8.682933902648998e-13,0.1,2.030950826628831e-12
0.125,1.002290360429645e-12,0.125,9.033538665735997e-13,0.125,8.059209866571683e-13,0.125,7.12250558337653e-13,0.125,6.282182489458465e-13,0.125,5.695093816412229e-13,0.125,5.791889167184208e-13,0.125,7.791484974569851e-13,0.125,1.525959302538976e-12,0.125,3.900477872637035e-12
0.15,1.003144308418216e-12,0.15,9.05333115053506e-13,0.15,8.10594709302622e-13,0.15,7.235094543320876e-13,0.15,6.559284478475949e-13,0.15,6.393012247212333e-13,0.15,7.59396312455713e-13,0.15,1.257107612988663e-12,0.15,2.83077374743005e-12,0.15,7.5743169775885e-12
0.175,1.004913157176199e-12,0.175,9.094176617693366e-13,0.175,8.202009171835909e-13,0.175,7.465485915954111e-13,0.175,7.123562918481107e-13,0.175,7.806517565199333e-13,0.175,1.122134977232063e-12,0.175,2.212392426125969e-12,0.175,5.416942936596563e-12,0.175,1.478223837304694e-11
0.2,1.008576944497145e-12,0.2,9.178463118595264e-13,0.2,8.399431778658873e-13,0.2,7.936864397346385e-13,0.2,8.272364680341099e-13,0.2,1.066827394165487e-12,0.2,1.851877873118525e-12,0.2,4.120004250693367e-12,0.2,1.053559947391215e-11,0.2,2.889237840056074e-11
0.225,1.016165190918485e-12,0.225,9.352375289907266e-13,0.225,8.805107049317423e-13,0.225,8.901087937088035e-13,0.225,1.061040028541594e-12,0.225,1.645914796257991e-12,0.225,3.318773440096998e-12,0.225,7.924576803049659e-12,0.225,2.064685899004126e-11,0.225,5.642935256807232e-11
0.25,1.031880095948427e-12,0.25,9.711166120724699e-13,0.25,9.638537932330559e-13,0.25,1.087282584972041e-12,0.25,1.5366487348655e-12,0.25,2.81686433072606e-12,0.25,6.264138678699829e-12,0.25,1.549923148193875e-11,0.25,4.056616459431795e-11,0.25,1.099437351190237e-10
0.275,1.064420531251571e-12,0.275,1.045122406130449e-12,0.275,1.135025085056847e-12,0.275,1.490301792791316e-12,0.275,2.503486243228274e-12,0.275,5.18214516183374e-12,0.275,1.216873336853294e-11,0.275,3.054311216821748e-11,0.275,7.966049582521468e-11,0.275,2.133488918501756e-10
0.3,1.131788040605146e-12,0.3,1.19772619984856e-12,0.3,1.486429050387808e-12,0.3,2.313537726690759e-12,0.3,4.467018966214938e-12,0.3,9.952953732378357e-12,0.3,2.397939452734727e-11,0.3,6.032036197300118e-11,0.3,1.559954716381286e-10,0.3,4.11635459621809e-10
0.325,1.271218035835279e-12,0.325,1.512273541875632e-12,0.325,2.207398787468545e-12,0.325,3.993606022833022e-12,0.325,8.449270903708107e-12,0.325,1.955594129426104e-11,0.325,4.753033897552734e-11,0.325,1.189854372714866e-10,0.325,3.040147671926296e-10,0.325,7.880678318133241e-10
0.35,1.559679306607598e-12,0.35,2.160236800457672e-12,0.35,3.685310665653084e-12,0.35,7.417865266255596e-12,0.35,1.65100974501226e-11,0.35,3.882966663890787e-11,0.35,9.428988747944842e-11,0.35,2.338289591773566e-10,0.35,5.883979083887814e-10,0.35,1.493587933476019e-09
0.3750000000000001,2.15612161572411e-12,0.3750000000000001,3.493905497091072e-12,0.3750000000000001,6.711109585823512e-12,0.3750000000000001,1.438426252496116e-11,0.3750000000000001,3.27823726678478e-11,0.3750000000000001,7.73576081262208e-11,0.3750000000000001,1.86581245674244e-10,0.3750000000000001,4.567308513534789e-10,0.3750000000000001,1.128255131490114e-09,0.3750000000000001,2.795112611351075e-09
0.4000000000000001,3.388347734368724e-12,0.4000000000000001,6.235616101178259e-12,0.4000000000000001,1.289503136151973e-11,0.4000000000000001,2.852013704753648e-11,0.4000000000000001,6.550608481211824e-11,0.4000000000000001,1.539471981917459e-10,0.4000000000000001,3.67285233063805e-10,0.4000000000000001,8.845150637975131e-10,0.4000000000000001,2.137716014085807e-09,0.4000000000000001,5.151656684296326e-09
0.4250000000000001,5.931068036875016e-12,0.4250000000000001,1.186225118784716e-11,0.4250000000000001,2.550171269840013e-11,0.4250000000000001,5.709959703156537e-11,0.4250000000000001,1.309667708640458e-10,0.4250000000000001,3.050482240218892e-10,0.4250000000000001,7.173443577978685e-10,0.4250000000000001,1.69373993307933e-09,0.4250000000000001,3.991085176558701e-09,0.4250000000000001,9.330215890308668e-09
0.4500000000000001,1.11691606625033e-11,0.4500000000000001,2.338128370736442e-11,0.4500000000000001,5.111150055367199e-11,0.4500000000000001,1.145878617734395e-10,0.4500000000000001,2.609682536488121e-10,0.4500000000000001,6.001322436716384e-10,0.4500000000000001,1.386167040726766e-09,0.4500000000000001,3.197536871670888e-09,0.4500000000000001,7.323189778761051e-09,0.4500000000000001,1.657808033220608e-08
0.4750000000000001,2.193391083346316e-11,0.4750000000000001,4.688227187713434e-11,0.4750000000000001,1.028804777077177e-10,0.4750000000000001,2.294200899566668e-10,0.4750000000000001,5.166291485844159e-10,0.4750000000000001,1.168774795346678e-09,0.4750000000000001,2.642098621116063e-09,0.4750000000000001,5.934303578123654e-09,0.4750000000000001,1.317928126260955e-08,0.4750000000000001,2.887206462783175e-08
0.5000000000000001,4.398128915264883e-11,0.5000000000000001,9.459747649185353e-11,0.5000000000000001,2.068174911015963e-10,0.5000000000000001,4.566274152966897e-10,0.5000000000000001,1.012958924898076e-09,0.5000000000000001,2.246243206999084e-09,0.5000000000000001,4.95222033981878e-09,0.5000000000000001,1.080100184778454e-08,0.5000000000000001,2.323390600802392e-08,0.5000000000000001,4.924970491230832e-08
0.5250000000000001,8.892124118006004e-11,0.5250000000000001,1.908281610711994e-10,0.5250000000000001,4.135612434274831e-10,0.5250000000000001,9.00544174031506e-10,0.5250000000000001,1.960722037876813e-09,0.5250000000000001,4.246463532142928e-09,0.5250000000000001,9.103160690043249e-09,0.5250000000000001,1.924856170987995e-08,0.5250000000000001,4.009443213148049e-08,0.5250000000000001,8.214992925198658e-08
0.5500000000000002,1.799162342031548e-10,0.5500000000000002,3.831304847414689e-10,0.5500000000000002,8.197274287407789e-10,0.5500000000000002,1.75387406250115e-09,0.5500000000000002,3.734176129646366e-09,0.5500000000000002,7.873351286667963e-09,0.5500000000000002,1.637864923278613e-08,0.5500000000000002,3.35586467169726e-08,0.5500000000000002,6.765794380716346e-08,0.5500000000000002,1.335193213181479e-07
0.5750000000000002,3.624893681760093e-10,0.5750000000000002,7.627191362986114e-10,0.5750000000000002,1.604932367542229e-09,0.5750000000000002,3.361486570069813e-09,0.5750000000000002,6.975202848543637e-09,0.5750000000000002,1.428484046115602e-08,0.5750000000000002,2.88135405779709e-08,0.5750000000000002,5.719422340033345e-08,0.5750000000000002,1.113525957205842e-07,0.5750000000000002,2.102707797866923e-07
0.6000000000000002,7.243358827757335e-10,0.6000000000000002,1.500079926372804e-09,0.6000000000000002,3.09270943568827e-09,0.6000000000000002,6.319145741016752e-09,0.6000000000000002,1.27471307347165e-08,0.6000000000000002,2.532862581773803e-08,0.6000000000000002,4.95298106483865e-08,0.6000000000000002,9.511130174949998e-08,0.6000000000000002,1.778939041107029e-07,0.6000000000000002,3.18835584066683e-07
0.6250000000000002,1.430066872420294e-09,0.6250000000000002,2.903905010430583e-09,0.6250000000000002,5.845302897116991e-09,0.6250000000000002,1.161971909071427e-08,0.6250000000000002,2.275622027369184e-08,0.6250000000000002,4.386202055678362e-08,0.6250000000000002,8.30813446264168e-08,0.6250000000000002,1.537219803994297e-07,0.6250000000000002,2.741652346405742e-07,0.6250000000000002,4.632741624009812e-07
0.6500000000000002,2.778943918884501e-09,0.6500000000000002,5.513186536984992e-09,0.6500000000000002,1.08043421407384e-08,0.6500000000000002,2.086380966908712e-08,0.6500000000000002,3.965668412977647e-08,0.6500000000000002,7.410946852993597e-08,0.6500000000000002,1.355542947246775e-07,0.6500000000000002,2.40073482478671e-07,0.6500000000000002,4.053558963862315e-07,0.6500000000000002,6.440992657980423e-07
0.6750000000000003,5.295341124268718e-09,0.6750000000000003,1.023407330828035e-08,0.6750000000000003,1.949345335032393e-08,0.6750000000000003,3.655230025830027e-08,0.6750000000000003,6.741054417102165e-08,0.6750000000000003,1.218516266973763e-07,0.6750000000000003,2.139894400894166e-07,0.6750000000000003,3.601344908080322e-07,0.6750000000000003,5.733503713159982e-07,0.6750000000000003,8.585266122978655e-07
0.7000000000000003,9.863243298492098e-09,0.7000000000000003,1.853683067228572e-08,0.7000000000000003,3.43009414204953e-08,0.7000000000000003,6.244377230239594e-08,0.7000000000000003,1.11532929407299e-07,0.7000000000000003,1.94034589646737e-07,0.7000000000000003,3.24860277858788e-07,0.7000000000000003,5.169395886658113e-07,0.7000000000000003,7.764252083765473e-07,0.7000000000000003,1.101711090252087e-06
0.7250000000000003,1.791956536703391e-08,0.7250000000000003,3.273119399962597e-08,0.7250000000000003,5.883304603200586e-08,0.7250000000000003,1.038347486594013e-07,0.7250000000000003,1.788395213769963e-07,0.7250000000000003,2.97438397227543e-07,0.7250000000000003,4.721141952547463e-07,0.7250000000000003,7.09796950893383e-07,0.7250000000000003,1.01023431680668e-06,0.7250000000000003,1.368087984716809e-06
0.7500000000000003,3.172451695990529e-08,0.7500000000000003,5.631535165569899e-08,0.7500000000000003,9.821531350662779e-08,0.7500000000000003,1.674063515592018e-07,0.7500000000000003,2.762823736976986e-07,0.7500000000000003,4.367046093008974e-07,0.7500000000000003,6.559918131748596e-07,0.7500000000000003,9.349473625760122e-07,0.7500000000000003,1.269225645889983e-06,0.7500000000000003,1.652320301871644e-06
0.7750000000000004,5.470700448689926e-08,0.7750000000000004,9.428940196867112e-08,0.7750000000000004,1.590080388977712e-07,0.7750000000000004,2.601961043745597e-07,0.7750000000000004,4.090117690984773e-07,0.7750000000000004,6.1287018429705e-07,0.7750000000000004,8.733415373152454e-07,0.7750000000000004,1.186966210212478e-06,0.7750000000000004,1.547786866489247e-06,0.7750000000000004,1.949788186338114e-06
0.8000000000000004,9.17840713027128e-08,0.8000000000000004,1.531158470622688e-07,0.8000000000000004,2.482813940538956e-07,0.8000000000000004,3.877129369032011e-07,0.8000000000000004,5.78712230754409e-07,0.8000000000000004,8.233598788164042e-07,0.8000000000000004,1.118939387652318e-06,0.8000000000000004,1.460063209298934e-06,0.8000000000000004,1.840911007895698e-06,0.8000000000000004,2.256741774618251e-06
0.8250000000000004,1.493475248546843e-07,0.8250000000000004,2.398670454354124e-07,0.8250000000000004,3.71784212234112e-07,0.8250000000000004,5.521424608843978e-07,0.8250000000000004,7.833178052186535e-07,0.8250000000000004,1.063184209813609e-06,0.8250000000000004,1.386895712875485e-06,0.8250000000000004,1.748914588672382e-06,0.8250000000000004,2.144460545653489e-06,0.8250000000000004,2.570260240647768e-06
0.8500000000000004,2.34455275912008e-07,0.8500000000000004,3.604379121206747e-07,0.8500000000000004,5.320665550819862e-07,0.8500000000000004,7.518392788212608e-07,0.8500000000000004,1.01807414178194e-06,0.8500000000000004,1.32641122212317e-06,0.8500000000000004,1.671635516779223e-06,0.8500000000000004,2.049042563392764e-06,0.8500000000000004,2.455180179261945e-06,0.8500000000000004,2.88812437267663e-06
0.8750000000000004,3.530727109686764e-07,0.8750000000000004,5.176187040204769e-07,0.8750000000000004,7.278039364541257e-07,0.8750000000000004,9.822592679673722e-07,0.8750000000000004,1.277043002185655e-06,0.8750000000000004,1.607271936468485e-06,0.8750000000000004,1.968390327879877e-06,0.8750000000000004,2.356888708465217e-06,0.8750000000000004,2.77058583605696e-06,0.8750000000000004,3.208667901207838e-06
0.9000000000000005,5.081180477741888e-07,0.9000000000000005,7.103027254417837e-07,0.9000000000000005,9.546197126727549e-07,0.9000000000000005,1.237475513198601e-06,0.9000000000000005,1.554308744826404e-06,0.9000000000000005,1.900755915334215e-06,0.9000000000000005,2.273334634807613e-06,0.9000000000000005,2.669725075869567e-06,0.9000000000000005,3.088812891089266e-06,0.9000000000000005,3.53064044236787e-06
0.9250000000000005,6.986005287311413e-07,0.9250000000000005,9.342270581692089e-07,0.9250000000000005,1.206601266204441e-06,0.9250000000000005,1.511463134790851e-06,0.9250000000000005,1.844664870380572e-06,0.9250000000000005,2.202809078977604e-06,0.9250000000000005,2.583522534396688e-06,0.9250000000000005,2.985503149915584e-06,0.9250000000000005,3.40846815368771e-06,0.9250000000000005,3.853094632293769e-06
0.9500000000000005,9.203118702068622e-07,0.9500000000000005,1.183485902182309e-06,0.9500000000000005,1.477643159056667e-06,0.9500000000000005,1.798861671699189e-06,0.9500000000000005,2.143868005748873e-06,0.9500000000000005,2.510296902868491e-06,0.9500000000000005,2.896740312799745e-06,0.9500000000000005,3.302697255856051e-06,0.9500000000000005,3.728504552578693e-06,0.9500000000000005,4.175299187539539e-06
0.9750000000000005,1.167339221625081e-06,0.9750000000000005,1.451915011878564e-06,0.9750000000000005,1.762269056569768e-06,0.9750000000000005,2.095277277293587e-06,0.9750000000000005,2.448626409014919e-06,0.9750000000000005,2.820862367667077e-06,0.9750000000000005,3.21134339822447e-06,0.9750000000000005,3.620168226030081e-06,0.9750000000000005,4.048123093501891e-06,0.9750000000000005,4.496674815570603e-06
1,1.433476444115413e-06,1,1.733956592724381e-06,1,2.055972248362014e-06,1,2.397293357262275e-06,1,2.75646385449342e-06,1,3.132758162838055e-06,1,3.526110496389788e-06,1,3.937055123255282e-06,1,4.366699905639609e-06,1,4.816748411452984e-06
1.025,1.713115677923068e-06,1.025,2.02502707593417e-06,1.025,2.355243745556195e-06,1.025,2.70233988224438e-06,1.025,3.065548307299454e-06,1.025,3.444692727322504e-06,1.025,3.840126115904679e-06,1.025,4.252693968267812e-06,1.025,4.683733788853625e-06,1.025,5.135121072703326e-06
1.05,2.001630751246112e-06,1.05,2.321556975709075e-06,1.05,2.657445636203969e-06,1.05,3.008519273193315e-06,1.05,3.374531183523444e-06,1.05,3.755704707791387e-06,1.05,4.152691702431038e-06,1.05,4.56655899341344e-06,1.05,4.998809426544347e-06,1.05,5.451446170184471e-06
1.075,2.295422538246958e-06,1.075,2.620866275408814e-06,1.075,2.960634507807611e-06,1.075,3.314440044442847e-06,1.075,3.682414910772877e-06,1.075,4.065067357882327e-06,1.075,4.463261110446533e-06,1.075,4.87822129394308e-06,1.075,5.311572069479883e-06,1.075,5.765414546118667e-06
1.1,2.591794006261859e-06,1.1,2.92098540655109e-06,1.1,3.263390489795974e-06,1.1,3.619078636540001e-06,1.1,3.98845154071384e-06,1.1,4.372218863320355e-06,1.1,4.771395054673388e-06,1.1,5.187320290946506e-06,1.1,5.621710377194838e-06,1.1,6.076744664709344e-06
1.125,2.888768589376892e-06,1.125,3.220480588099472e-06,1.125,3.564674507769e-06,1.125,3.921673244632493e-06,1.125,4.292068654844509e-06,1.125,4.676713054660253e-06,1.125,5.076729607534232e-06,1.125,5.493544332397567e-06,1.125,5.928944938727834e-06,1.125,6.38517615088555e-06
1.15,3.184912643906999e-06,1.15,3.518307621633942e-06,1.15,3.863718356456274e-06,1.15,4.221646094721633e-06,1.15,4.592816876155153e-06,1.15,4.978185268895946e-06,1.15,5.378954739566053e-06,1.15,5.796617665750624e-06,1.15,6.233020683187578e-06,1.15,6.690465616177638e-06
1.175,3.479186873863628e-06,1.175,3.813699242181978e-06,1.175,4.159944172433824e-06,1.175,4.518548345404682e-06,1.175,4.89033348215369e-06,1.175,5.276329061967134e-06,1.175,5.677799869811216e-06,1.175,6.096291777901533e-06,1.175,6.533701918882288e-06,1.175,6.992384009496826e-06
1.2,3.770831980913586e-06,1.2,4.106082626520091e-06,1.2,4.452907349016441e-06,1.2,4.812021880199369e-06,1.2,5.184317563391311e-06,1.2,5.57088049976031e-06,1.2,5.973024223157961e-06,1.2,6.392339688216158e-06,1.2,6.830769127554573e-06,1.2,7.290714971802452e-06
1.225,4.059285040677814e-06,1.225,4.395020956352339e-06,1.225,4.742256959821556e-06,1.225,5.10177321490973e-06,1.225,5.474513246447277e-06,1.225,5.861607646104953e-06,1.225,6.264410438745391e-06,1.225,6.684552215116057e-06,1.225,7.124016916885758e-06,1.225,7.585253842220346e-06
1.25,4.344120343719705e-06,1.25,4.680172933640459e-06,1.25,5.0277087345648e-06,1.25,5.38755586379225e-06,1.25,5.760698445314456e-06,1.25,6.148303565266915e-06,1.25,6.551760352079999e-06,1.25,6.972735547279988e-06,1.25,7.413252727806016e-06,1.25,7.87580707935135e-06
1.274999999999999,4.625008457814563e-06,1.274999999999999,4.961265149780582e-06,1.274999999999999,5.309026790794165e-06,1.274999999999999,5.669158500402078e-06,1.274999999999999,6.042677349853501e-06,1.274999999999999,6.430781674527583e-06,1.274999999999999,6.834892215656546e-06,1.274999999999999,7.256709667630414e-06,1.274999999999999,7.698296026333182e-06,1.274999999999999,8.1621919406981e-06
1.299999999999999,4.901688310528921e-06,1.299999999999999,5.238073408355241e-06,1.299999999999999,5.586011357564171e-06,1.299999999999999,5.946397032781604e-06,1.299999999999999,6.320275412666404e-06,1.299999999999999,6.708872653003412e-06,1.299999999999999,7.113638861985766e-06,1.299999999999999,7.536307327692322e-06,1.299999999999999,7.978977800354455e-06,1.299999999999999,8.444236316626763e-06
1.324999999999999,5.173948324195743e-06,1.324999999999999,5.51041016663126e-06,1.324999999999999,5.858490542847199e-06,1.324999999999999,6.219109294401951e-06,1.324999999999999,6.593335990947993e-06,1.324999999999999,6.982422371661822e-06,1.324999999999999,7.38784647733232e-06,1.324999999999999,7.811373371538523e-06,1.324999999999999,8.255140242951888e-06,1.324999999999999,8.721778651134521e-06
1.349999999999999,5.441613726791925e-06,1.349999999999999,5.778116101494128e-06,1.349999999999999,6.126314801371548e-06,1.349999999999999,6.487151467872403e-06,1.349999999999999,6.861718075592506e-06,1.349999999999999,7.251290487209638e-06,1.349999999999999,7.657373766129895e-06,1.349999999999999,8.08176427700834e-06,1.349999999999999,8.526636544841096e-06,1.349999999999999,8.994667905562848e-06
1.374999999999999,5.704538020034887e-06,1.374999999999999,6.041054427384036e-06,1.374999999999999,6.389353191005732e-06,1.374999999999999,6.750395647944518e-06,1.374999999999999,7.125294728886768e-06,1.374999999999999,7.515349463060937e-06,1.374999999999999,7.92209136116864e-06,1.374999999999999,8.347347827672324e-06,1.374999999999999,8.793330745739109e-06,1.374999999999999,9.262763537191959e-06
