;Version, 1, 0
;/M0/D (len=1.8e-07),;/M0/D (len=2.2e-07),;/M0/D (len=2.5e-07),;/M0/D (len=2.9e-07),;/M0/D (len=3.25e-07),;/M0/D (len=3.6e-07),;/M0/D (len=4.3e-07),;/M0/D (len=5e-07),;/M0/D (len=5.75e-07),;/M0/D (len=6.5e-07),;/M0/D (len=7.2e-07)
;X, Y,;X, Y,;X, Y,;X, Y,;X, Y,;X, Y,;X, Y,;X, Y,;X, Y,;X, Y,;X, Y
;Re, Re,;Re, Re,;Re, Re,;Re, Re,;Re, Re,;Re, Re,;Re, Re,;Re, Re,;Re, Re,;Re, Re,;Re, Re
;VD, I,;VD, I,;VD, I,;VD, I,;VD, I,;VD, I,;VD, I,;VD, I,;VD, I,;VD, I,;VD, I
;xunit, A,;xunit, A,;xunit, A,;xunit, A,;xunit, A,;xunit, A,;xunit, A,;xunit, A,;xunit, A,;xunit, A,;xunit, A
0,0,0,0,0,0,0,0,0,0,0,0,0,0,0,0,0,0,0,0,0,0
0.025,0.000166310768017404,0.025,0.0001295064891552214,0.025,0.0001108639157725096,0.025,9.281083343308647e-05,0.025,8.108350146497567e-05,0.025,7.187746161654112e-05,0.025,5.838276409460973e-05,0.025,4.900887334286072e-05,0.025,4.41850924961218e-05,0.025,4.016455382770491e-05,0.025,3.699141121770243e-05
0.05,0.0003143571842387108,0.05,0.0002458627227279367,0.05,0.0002109585817337447,0.05,0.0001770099223432867,0.05,0.0001548733483059117,0.05,0.0001374481296278244,0.05,0.0001118283166715652,0.05,9.397852334059773e-05,0.05,8.482571565481419e-05,0.05,7.717529521387985e-05,0.05,7.112495432174006e-05
0.07500000000000001,0.0004452019127984557,0.07500000000000001,0.0003496651770533465,0.07500000000000001,0.0003007018728635058,0.07500000000000001,0.0002528769805968569,0.07500000000000001,0.0002215767682813478,0.07500000000000001,0.0001968712327597983,0.07500000000000001,0.0001604386345137329,0.07500000000000001,0.0001349795952173565,0.07500000000000001,0.000121976556212342,0.07500000000000001,0.0001110757898659882,0.07500000000000001,0.0001024366209091547
0.1,0.0005598469276557177,0.1,0.0004414850661775864,0.1,0.0003804972920406794,0.1,0.0003206843637640465,0.1,0.0002813966850104773,0.1,0.0002503034223318662,0.1,0.0002043147910869023,0.1,0.0001720825188621464,0.1,0.0001556923541572642,0.1,0.0001419098025792491,0.1,0.0001309626772020139
0.125,0.0006592523774190531,0.125,0.0005218766457544337,0.125,0.0004507391451408741,0.125,0.0003807002216619359,0.125,0.0003345339602122135,0.125,0.0002979004717316662,0.125,0.0002435580708511516,0.125,0.0002053583284906693,0.125,0.0001860285571903427,0.125,0.0001697218412876745,0.125,0.0001567401339937358
0.15,0.0007443652397863691,0.15,0.0005913903606630961,0.15,0.000511820904816406,0.15,0.0004331936910735425,0.15,0.000381191129579112,0.15,0.000339820131345502,0.15,0.0002782718605223772,0.15,0.0002348800615342198,0.15,0.0002130424301292772,0.15,0.0001945580738392652,0.15,0.000179807534684057
0.175,0.0008161665982974025,0.175,0.0006505953957560997,0.175,0.0005641497536752563,0.175,0.0004784440138685434,0.175,0.0004215789932945097,0.175,0.000376227178691306,0.175,0.0003085650028576217,0.175,0.0002607252408441513,0.175,0.0002367950035102361,0.175,0.0002164679247606026,0.175,0.0002002063187786206
0.2,0.0008757482103291014,0.2,0.0007001191476318734,0.2,0.0006081726274074108,0.2,0.0005167570864633218,0.2,0.0004559286367030842,0.2,0.0004073026485871224,0.2,0.0003345579302517569,0.2,0.000282980409644665,0.2,0.000257354593793648,0.2,0.000235506932993735,0.2,0.0002179832443362304
0.225,0.0009244141809298992,0.225,0.0007407113156401396,0.225,0.0006444211054181462,0.225,0.0005484950821328145,0.225,0.0004845132872615153,0.225,0.0004332607561704445,0.225,0.000356393987679806,0.225,0.0003017495169183922,0.225,0.0002748032549764586,0.225,0.0002517419475742851,0.225,0.000233194763477671
0.25,0.0009637473258246838,0.25,0.0007733241931935025,0.25,0.0006735773085569149,0.25,0.0005741245591681014,0.25,0.0005076854464784003,0.25,0.0004543784096369167,0.25,0.0003742597070946859,0.25,0.0003171691026091621,0.25,0.000289248457977594,0.25,0.0002652605086864284,0.25,0.000245914897994674
0.275,0.000995523464168467,0.275,0.0007991527700646076,0.275,0.0006965350724551189,0.275,0.000594276019429306,0.275,0.0005259286603597135,0.275,0.0004710393026206886,0.275,0.0003884173786778123,0.275,0.0003294335504763149,0.275,0.0003008429078407288,0.275,0.000276186933633751,0.275,0.0002562488173533673
0.3,0.001021460516322356,0.3,0.00081954630364214,0.3,0.0007143856486325663,0.3,0.0006097732419182349,0.3,0.0005398990580802287,0.3,0.0004837778102229779,0.3,0.0003992447157782198,0.3,0.000338828817526412,0.3,0.0003098128766991092,0.3,0.0002847062689234834,0.3,0.0002643535631098404
0.325,0.001042989529366417,0.325,0.0008358020611856415,0.325,0.0007282787591247074,0.325,0.0006215687840314274,0.325,0.0005504011994853121,0.325,0.0004932782091185744,0.325,0.0004072540251049775,0.325,0.0003457567532676901,0.325,0.0003164842617753883,0.325,0.000291089404615365,0.325,0.0002704615248849816
0.35,0.001061190162783101,0.35,0.0008489913836152882,0.35,0.0007392383430680002,0.35,0.0006305913726132906,0.35,0.0005582719485459905,0.35,0.0005002900771045627,0.35,0.0004130495738215256,0.35,0.0003507146201748155,0.35,0.0003212783165743781,0.35,0.000295697508448319,0.35,0.0002748892719268363
0.3750000000000001,0.001076843917695664,0.3750000000000001,0.0008599140645938092,0.3750000000000001,0.0007480617845662951,0.3750000000000001,0.000637611360004108,0.3750000000000001,0.0005642427443706522,0.3750000000000001,0.0005054994022052926,0.3750000000000001,0.0004172256307485913,0.3750000000000001,0.0003542168171393113,0.3750000000000001,0.0003246552910004865,0.3750000000000001,0.0002989419481438584,0.3750000000000001,0.000278008499836927
0.4000000000000001,0.001090514231727027,0.4000000000000001,0.0008691405384330594,0.4000000000000001,0.0007553236016894286,0.4000000000000001,0.0006431992331561339,0.4000000000000001,0.0005688713156172512,0.4000000000000001,0.0005094448402945468,0.4000000000000001,0.0004202736734835953,0.4000000000000001,0.000356706328240773,0.4000000000000001,0.000327032755575799,0.4000000000000001,0.0003012121644633432,0.4000000000000001,0.0002801828008994833
0.4250000000000001,0.001102612587891221,0.4250000000000001,0.0008770743500798963,0.4250000000000001,0.0007614257822146951,0.4250000000000001,0.0006477535977391731,0.4250000000000001,0.0005725499496316624,0.4250000000000001,0.0005125092129656945,0.4250000000000001,0.0004225514387126967,0.4250000000000001,0.0003585128545472758,0.4250000000000001,0.0003287336714616254,0.4250000000000001,0.000302819700527541,0.4250000000000001,0.0002817111349050475
0.4500000000000001,0.00111344498779825,0.4500000000000001,0.0008840040303557729,0.4500000000000001,0.0007666496367434147,0.4500000000000001,0.0006515482417224957,0.4500000000000001,0.0005755456712045856,0.4500000000000001,0.000514951965284081,0.4500000000000001,0.000424301168133457,0.4500000000000001,0.0003598605061543193,0.4500000000000001,0.0003299822193110982,0.4500000000000001,0.0003039852347601309,0.4500000000000001,0.0002828090311269149
0.4750000000000001,0.001123243238386338,0.4750000000000001,0.0008901395824976819,0.4750000000000001,0.0007711948297056709,0.4750000000000001,0.0006547723946674137,0.4750000000000001,0.000578039841375378,0.4750000000000001,0.0005169470086594396,0.4750000000000001,0.0004256824623042127,0.4750000000000001,0.0003608954905942312,0.4750000000000001,0.000330925570335549,0.4750000000000001,0.0003048547557525679,0.4750000000000001,0.0002836201643964596
0.5000000000000001,0.001132185993288466,0.5000000000000001,0.000895636849464792,0.5000000000000001,0.0007752058288424982,0.5000000000000001,0.0006575590751818175,0.5000000000000001,0.0005801573169482446,0.5000000000000001,0.0005186120268917937,0.5000000000000001,0.0004268005591351979,0.5000000000000001,0.0003617125100533829,0.5000000000000001,0.0003316587271409926,0.5000000000000001,0.0003055223912954039,0.5000000000000001,0.0002842371857808477
0.5250000000000001,0.001140413102594965,0.5250000000000001,0.0009006136663238317,0.5250000000000001,0.0007787892851335478,0.5250000000000001,0.0006600037351368208,0.5250000000000001,0.0005819857961783048,0.5250000000000001,0.0005200281721179423,0.5250000000000001,0.0004277259361396707,0.5250000000000001,0.000362373636942024,0.5250000000000001,0.0003322434224827153,0.5250000000000001,0.0003060489210840862,0.5250000000000001,0.0002847196602120852
0.5500000000000002,0.001148035580818113,0.5500000000000002,0.0009051606783962918,0.5500000000000002,0.000782025454869122,0.5500000000000002,0.0006621763171558564,0.5500000000000002,0.000583588233272361,0.5500000000000002,0.0005212526562806502,0.5500000000000002,0.0004285068321693744,0.5500000000000002,0.0003629204123449954,0.5500000000000002,0.000332720518868632,0.5500000000000002,0.0003064742255706106,0.5500000000000002,0.0002851064109125584
0.5750000000000002,0.001155142662979394,0.5750000000000002,0.0009093487107351367,0.5750000000000002,0.0007849758048809477,0.5750000000000002,0.0006641290967286888,0.5750000000000002,0.0005850107901262588,0.5750000000000002,0.0005223267229376343,0.5750000000000002,0.0004291770506051003,0.5750000000000002,0.0003633813124906156,0.5750000000000002,0.000333117703416894,0.5750000000000002,0.000306825067665632,0.5750000000000002,0.0002854232945578949
0.6000000000000002,0.001161806889787167,0.6000000000000002,0.0009132338835948593,0.6000000000000002,0.0007876881679833527,0.6000000000000002,0.0006659018613516625,0.6000000000000002,0.0005862879920744881,0.6000000000000002,0.0005232807386389742,0.6000000000000002,0.0004297608308572352,0.6000000000000002,0.0003637763361936426,0.6000000000000002,0.0003334542002225956,0.6000000000000002,0.0003071198520310504,0.6000000000000002,0.0002856879562336946
0.6250000000000002,0.001168087833602354,0.6250000000000002,0.0009168612299929076,0.6250000000000002,0.0007902003054116038,0.6250000000000002,0.000667525396325499,0.6250000000000002,0.0005874461317460302,0.6250000000000002,0.0005241375000216238,0.6250000000000002,0.0004302759329214138,0.6250000000000002,0.0003641198558522014,0.6250000000000002,0.0003337436769649802,0.6250000000000002,0.0003073715443472853,0.6250000000000002,0.0002859127346699467
0.6500000000000002,0.001174034870153165,0.6500000000000002,0.0009202672994184942,0.6500000000000002,0.0007925424152477545,0.6500000000000002,0.0006690238775746331,0.6500000000000002,0.0005885055617196526,0.6500000000000002,0.0005249144252851498,0.6500000000000002,0.0004307356288034037,0.6500000000000002,0.0003644224226068329,0.6500000000000002,0.0003339960679358037,0.6500000000000002,0.0003075894885224899,0.6500000000000002,0.0002861064603562429
0.6750000000000003,0.001179689269084834,0.6750000000000003,0.0009234820626896736,0.6750000000000003,0.0007947389303833379,0.6750000000000003,0.0006704165460426314,0.6750000000000003,0.0005894822700008202,0.6750000000000003,0.0005256250366345356,0.6750000000000003,0.0004311500157608657,0.6750000000000003,0.0003646919340332467,0.6750000000000003,0.00033421874140803,0.6750000000000003,0.0003077805607015417,0.6750000000000003,0.0002862755900163643
0.7000000000000003,0.00118508579077926,0.7000000000000003,0.0009265303266342344,0.7000000000000003,0.0007968098287186654,0.7000000000000003,0.0006717189008005105,0.7000000000000003,0.0005903889836648484,0.7000000000000003,0.0005262799834025435,0.7000000000000003,0.0004315269008836218,0.7000000000000003,0.0003649344062204175,0.7000000000000003,0.0003344172637238028,0.7000000000000003,0.0003079499182633742,0.7000000000000003,0.0002864249380114024
0.7250000000000003,0.001190253920234398,0.7250000000000003,0.0009294327993150499,0.7250000000000003,0.0007987716025776783,0.7250000000000003,0.0006729435636603502,0.7250000000000003,0.000591235956025608,0.7250000000000003,0.0005268877616823729,0.7250000000000003,0.000431872409193474,0.7250000000000003,0.0003651544952687878,0.7250000000000003,0.0003345959103716831,0.7250000000000003,0.0003081014967014127,0.7250000000000003,0.0002865581583653405
0.7500000000000003,0.001195218830674519,0.7500000000000003,0.0009322069023298845,0.7500000000000003,0.0008006379860878441,0.7500000000000003,0.0006741009155611983,0.7500000000000003,0.0005920315375355901,0.7500000000000003,0.000527455229515132,0.7500000000000003,0.0004321914097603942,0.7500000000000003,0.0003653558567209802,0.7500000000000003,0.0003347580149823917,0.7500000000000003,0.0003082383462742404,0.7500000000000003,0.0002866780692970493
0.7750000000000004,0.001200002143489525,0.7750000000000004,0.0009348673974767167,0.7750000000000004,0.0008024205080170895,0.7750000000000004,0.0006751995717243788,0.7750000000000004,0.0005927825962627946,0.7750000000000004,0.0005279879817885651,0.7750000000000004,0.0004324878196595079,0.7750000000000004,0.0003655413980083136,0.7750000000000004,0.0003349062123216922,0.7750000000000004,0.0003083628646777459,0.7750000000000004,0.0002867868761827145
0.8000000000000004,0.001204622532994156,0.8000000000000004,0.0009374268754039421,0.8000000000000004,0.0008041289169481696,0.8000000000000004,0.0006762467411272774,0.8000000000000004,0.00059349483200042,0.8000000000000004,0.0005284906271867096,0.8000000000000004,0.0004327648243867804,0.8000000000000004,0.0003657134588842498,0.8000000000000004,0.0003350426105619977,0.8000000000000004,0.0003084769608635952,0.8000000000000004,0.0002868863276619809
0.8250000000000004,0.001209096211743854,0.8250000000000004,0.0009398961404186089,0.8250000000000004,0.0008057715118505553,0.8250000000000004,0.0006772485017732383,0.8250000000000004,0.0005941730139981006,0.8250000000000004,0.0005289669956366317,0.8250000000000004,0.0004330250401377636,0.8250000000000004,0.0003658739424865488,0.8250000000000004,0.0003351689154740637,0.8250000000000004,0.0003085821723786658,0.8250000000000004,0.0002869778268703599
0.8500000000000004,0.001213437323041795,0.8500000000000004,0.0009422845162974007,0.8500000000000004,0.0008073554016952032,0.8500000000000004,0.0006782100138477647,0.8500000000000004,0.0005948211630617143,0.8500000000000004,0.0005294202956905701,0.8500000000000004,0.0004332706349653177,0.8500000000000004,0.0003660244119654702,0.8500000000000004,0.0003352865213493265,0.8500000000000004,0.0003086797507574165,0.8500000000000004,0.0002870625119939782
0.8750000000000004,0.001217658260696187,0.8750000000000004,0.0009446000913826688,0.8750000000000004,0.0008088867112477168,0.8750000000000004,0.000679135686486496,0.8750000000000004,0.0005954426925945784,0.8750000000000004,0.0005298532353391055,0.8750000000000004,0.0004335034204092551,0.8750000000000004,0.0003661661627095818,0.8750000000000004,0.0003353965785191422,0.8750000000000004,0.0003087707245820673,0.8750000000000004,0.0002871413154881412
0.9000000000000005,0.00122176993128213,0.9000000000000005,0.0009468499165686317,0.9000000000000005,0.0008103707456103648,0.9000000000000005,0.000680029309500337,0.9000000000000005,0.0005960405189621527,0.9000000000000005,0.000530268115765586,0.9000000000000005,0.0004337249216230883,0.9000000000000005,0.0003663002770199584,0.9000000000000005,0.0003355000441573524,0.9000000000000005,0.0003088559466847792,0.9000000000000005,0.0002872150082171048
0.9250000000000005,0.001225781970614464,0.9250000000000005,0.0009490401664092184,0.9250000000000005,0.0008118121228403761,0.9250000000000005,0.000680894158345376,0.9250000000000005,0.0005966171486754553,0.9250000000000005,0.0005306669048372565,0.9250000000000005,0.0004339364316370133,0.9250000000000005,0.000366427665985126,0.9250000000000005,0.0003355977209712738,0.9250000000000005,0.0003089361299234912,0.9250000000000005,0.0002872842327775044
0.9500000000000005,0.001229702923492934,0.9500000000000005,0.0009511762711170781,0.9500000000000005,0.0008132148816392293,0.9500000000000005,0.0006817330784622024,0.9500000000000005,0.0005971747478710652,0.9500000000000005,0.0005310512952519304,0.9500000000000005,0.0004341390537750325,0.9500000000000005,0.0003665491019023611,0.9500000000000005,0.0003356902870009328,0.9500000000000005,0.0003090118746123137,0.9500000000000005,0.0002873495289547556
0.9750000000000005,0.001233540393849926,0.9750000000000005,0.0009532630254081701,0.9750000000000005,0.0008145825694107856,0.9750000000000005,0.0006825485535600426,0.9750000000000005,0.0005977151981376136,0.9750000000000005,0.0005314227509439863,0.9750000000000005,0.0004343337351266574,0.9750000000000005,0.0003666652436327672,0.9750000000000005,0.0003357783188097501,0.9750000000000005,0.0003090836897792998,0.9750000000000005,0.0002874113533835666
1,0.001237301170631007,1,0.000955304678834222,1,0.0008159183147463138,1,0.0006833427612985124,1,0.0005982401417154406,1,0.0005317825444200168,1,0.0004345212931923913,1,0.0003667766566160579,1,0.0003358623097072108,1,0.0003091520098048629,1,0.0002874700948869388
1.025,0.001240991334188073,1.025,0.0009573050110518656,1.025,0.0008172248874568826,1.025,0.0006841176190135762,1.025,0.0005987510183581508,1.025,0.0005321317870235669,1.025,0.0004347024372691671,1.025,0.0003668838288074509,1.025,0.0003359426841968021,1.025,0.0003092172075653236,1.025,0.0002875260865569196
1.05,0.001244616346381831,1.05,0.0009592673950661355,1.05,0.0008185047485353506,1.05,0.0006848748214625281,1.05,0.0005992490956003086,1.05,0.0005324714536588096,1.05,0.000434877785750187,1.05,0.0003669871834709057,1.05,0.0003360198095273178,1.05,0.000309279604905215,1.05,0.0002875796153530608
1.075,0.001248181127357061,1.075,0.0009611948505068328,1.075,0.0008197600920678546,1.075,0.0006856158722123532,1.075,0.0005997354937282634,1.075,0.0005328024030662688,1.075,0.0004350478802159783,1.075,0.0003670870895387242,1.075,0.0003360940050091902,1.075,0.0003093394810537874,1.075,0.0002876309297948538
1.1,0.001251690121254908,1.1,0.0009630900887852022,1.1,0.0008209928804883419,1.1,0.0006863421098823933,1.1,0.0006002112065820174,1.1,0.0005331253946367239,1.1,0.0004352131969763221,1.1,0.0003671838700197875,1.1,0.0003361655495588237,1.1,0.0003093970794278311,1.1,0.0002876802461684737
1.125,0.001255147352730796,1.125,0.000964955551555985,1.125,0.0008222048744296769,1.125,0.0006870547301898146,1.125,0.0006006771189183193,1.125,0.0005334411023807878,1.125,0.0004353741566237857,1.125,0.0003672778089341268,1.125,0.0003362346878836002,1.125,0.0003094526131803693,1.125,0.0002877277535700941
1.15,0.00125855647581678,1.15,0.0009667934436450277,1.15,0.0008233976581258879,1.15,0.0006877548045849573,1.15,0.0006011340210159496,1.15,0.0005337501266242737,1.15,0.000435531131954817,1.15,0.0003673691570199825,1.15,0.0003363016355688019,1.15,0.0003095062697614534,1.15,0.0002877736180477149
1.175,0.001261920816406775,1.175,0.0009686057613921087,1.175,0.0008245726611472597,1.175,0.0006884432960903476,1.175,0.0006015826210280459,1.175,0.0005340530038577152,1.175,0.0004356844545963756,1.175,0.0003674581364827511,1.175,0.0003363665832917123,1.175,0.0003095582146822325,1.175,0.0002878179860096365
1.2,0.001265243409437662,1.2,0.0009703943171934524,1.2,0.0008257311771079103,1.2,0.0006891210728440578,1.2,0.0006020235554935474,1.2,0.0005343502150833517,1.2,0.0004358344205836394,1.2,0.0003675449449709988,1.2,0.0003364297003398834,1.2,0.0003096085946500346,1.2,0.0002878609870577502
1.225,0.0012685270316755,1.225,0.0009721607608976392,1.225,0.000826874379874412,1.225,0.0006897889197572524,1.225,0.0006024573983427535,1.225,0.0005346421929379446,1.225,0.0004359812950892414,1.225,0.0003676297589308344,1.225,0.0003364911375702821,1.225,0.000309657540198358,1.225,0.0002879027363594126
1.25,0.001271774230885536,1.25,0.0009739065986060486,1.25,0.0008280033377167619,1.25,0.0006904475486251642,1.25,0.0006028846686724889,1.25,0.0005349293278191937,1.25,0.0004361253164666497,1.25,0.0003677127364608971,1.25,0.0003365510299199684,1.25,0.0003097051679124849,1.25,0.0002879433366504284
1.274999999999999,0.001274987352059315,1.274999999999999,0.0009756332093467569,1.274999999999999,0.0008291190257745564,1.274999999999999,0.0006910976069754009,1.274999999999999,0.0006033058375204175,1.274999999999999,0.0005352119732044616,1.274999999999999,0.0004362666997415792,1.274999999999999,0.0003677940197680076,1.274999999999999,0.000336609498558673,1.274999999999999,0.0003097515823325569,1.274999999999999,0.0002879828799441332
