;Version, 1, 0
;/VP (row=1),;/VP (row=2),;/VP (row=3),;/VP (row=4),;/VP (row=5),;/VP (row=6),;/VP (row=7),;/VP (row=8),;/VP (row=9),;/VP (row=10),;/VP (row=11)
;X, Y,;X, Y,;X, Y,;X, Y,;X, Y,;X, Y,;X, Y,;X, Y,;X, Y,;X, Y,;X, Y
;Re, Re,;Re, Re,;Re, Re,;Re, Re,;Re, Re,;Re, Re,;Re, Re,;Re, Re,;Re, Re,;Re, Re,;Re, Re
;VG, V,;VG, V,;VG, V,;VG, V,;VG, V,;VG, V,;VG, V,;VG, V,;VG, V,;VG, V,;VG, V
;xunit, V,;xunit, V,;xunit, V,;xunit, V,;xunit, V,;xunit, V,;xunit, V,;xunit, V,;xunit, V,;xunit, V,;xunit, V
0,-0.4803821128394125,0,-0.484127377203293,0,-0.485748263985202,0,-0.4878649460266377,0,-0.4895850690673509,0,-0.4911722121345345,0,-0.4940686386708439,0,-0.4965886116055636,0,-0.4885924609708475,0,-0.4824697542279501,0,-0.4779277155756442
0.001,-0.4795295717533223,0.001,-0.4832893395502514,0.001,-0.4849163277962527,0.001,-0.4870379393816358,0.001,-0.4887550055024487,0.001,-0.4903460665217473,0.001,-0.4932468236137549,0.001,-0.4957690369580829,0.001,-0.487773016029943,0.001,-0.4816503031332351,0.001,-0.4771082054008466
0.002,-0.4786776078818035,0.002,-0.4824514440263488,0.002,-0.4840845251351709,0.002,-0.4862110556653825,0.002,-0.4879307908151952,0.002,-0.4895236808030645,0.002,-0.4924267604101503,0.002,-0.4949503976556905,0.002,-0.4869548341088586,0.002,-0.4808324238200535,0.002,-0.4762905311662807
0.003,-0.4778258005037502,0.003,-0.4816136876510957,0.003,-0.4832528530799051,0.003,-0.4853842941255681,0.003,-0.4871066926317694,0.003,-0.4887014069818195,0.003,-0.4916068020740575,0.003,-0.4941318581437064,0.003,-0.4861367537123822,0.003,-0.4800146473352322,0.003,-0.4754729607187854
0.004,-0.4769741497057897,0.004,-0.4807760705067732,0.004,-0.4824213117108028,0.004,-0.4845576548408008,0.004,-0.4862827110296377,0.004,-0.487879245134539,0.004,-0.4907869486805252,0.004,-0.4933134184961659,0.004,-0.4853187749152766,0.004,-0.4791969737541463,0.004,-0.474655494134234
0.005,-0.4761226555745446,0.005,-0.479938592675659,0.005,-0.4815899011082079,0.005,-0.4837311378896808,0.005,-0.4854588460862608,0.005,-0.4870571953377371,0.005,-0.4899672003045755,0.005,-0.4924950787870631,0.005,-0.4845008977922678,0.005,-0.4783794031521345,0.005,-0.473838131488463
0.006,-0.4752713181966344,0.006,-0.4791012542400283,0.006,-0.4807586213524604,0.006,-0.4829047433508021,0.006,-0.4846350978790898,0.006,-0.486235257667913,0.006,-0.4891475570212046,0.006,-0.4916768390903503,0.006,-0.4836831224180427,0.006,-0.4775619356044983,0.006,-0.4730208728572725
0.007,-0.4744201376586743,0.007,-0.4782640552821541,0.007,-0.4799274725238976,0.007,-0.4820784713027532,0.007,-0.4838114664855652,0.007,-0.485413432201552,0.007,-0.4883280189053809,0.007,-0.4908586994799402,0.007,-0.4828654488672524,0.007,-0.4767445711865039,0.007,-0.4722037183164269
0.008,-0.473569114047276,0.008,-0.4774269958843076,0.008,-0.4790964547028538,0.008,-0.4812523218241164,0.008,-0.4829879519831194,0.008,-0.4845917190151261,0.008,-0.4875085860320504,0.008,-0.4900406600297072,0.008,-0.4820478772145128,0.008,-0.475927309973384,0.008,-0.4713866679416566
0.009000000000000001,-0.4727182474490493,0.009000000000000001,-0.4765900761287592,0.009000000000000001,-0.4782655679696619,0.009000000000000001,-0.480426294993471,0.009000000000000001,-0.4821645544491774,0.009000000000000001,-0.4837701181850949,0.009000000000000001,-0.4866892584761345,0.009000000000000001,-0.4892227208134895,0.009000000000000001,-0.4812304075344062,0.009000000000000001,-0.4751101520403384,0.009000000000000001,-0.4705697218086593
0.01,-0.4718675379506002,0.01,-0.4757532960977783,0.01,-0.4774348124046532,0.01,-0.4796003908893918,0.01,-0.4813412739611566,0.01,-0.4829486297879069,0.01,-0.4858700363125332,0.01,-0.4884048819050898,0.01,-0.4804130399014829,0.01,-0.4742930974625358,0.01,-0.4697528799931016
0.011,-0.4710169856385339,0.011,-0.4749166558736347,0.011,-0.4766041880881593,0.011,-0.4787746095904513,0.011,-0.480518110596469,0.011,-0.4821272539000009,0.011,-0.4850509196161248,0.011,-0.4875871433782769,0.011,-0.4795957743902625,0.011,-0.4734761463151158,0.011,-0.4689361425706207
0.012,-0.4701665905994528,0.012,-0.4740801555385983,0.012,-0.4757736951005107,0.012,-0.4779489511752188,0.012,-0.4796950644325207,0.012,-0.4813059905978059,0.012,-0.4842319084617688,0.012,-0.486769505306788,0.012,-0.4787786110752351,0.012,-0.4726592986731888,0.012,-0.4681195096168247
0.013,-0.4693163529199584,0.013,-0.4732437951749398,0.013,-0.4749433335220387,0.013,-0.4771234157222634,0.013,-0.4788721355467133,0.013,-0.4804848399577424,0.013,-0.4834130029243057,0.013,-0.4859519677643288,0.013,-0.477961550030863,0.013,-0.4718425546118388,0.013,-0.467302981207295
0.01400000000000001,-0.4684662726866511,0.01400000000000001,-0.4724075748649314,0.01400000000000001,-0.4741131034330759,0.01400000000000001,-0.476298003310152,0.01400000000000001,-0.4780493240164453,0.01400000000000001,-0.4796638020562234,0.01400000000000001,-0.4825942030785588,0.01400000000000001,-0.4851345308245757,0.01400000000000001,-0.4771445913315814,0.01400000000000001,-0.4710259142061236,0.01400000000000001,-0.4664865574175867
0.01500000000000001,-0.4676163499861309,0.01500000000000001,-0.471571494690847,0.01500000000000001,-0.4732830049139562,0.01500000000000001,-0.4754727140174521,0.01500000000000001,-0.4772266299191112,0.01500000000000001,-0.4788428769696556,0.01500000000000001,-0.4817755089993347,0.01500000000000001,-0.4843171945611768,0.01500000000000001,-0.476327735051801,0.01500000000000001,-0.4702093775310769,0.01500000000000001,-0.4656702383232308
0.01600000000000001,-0.4667665849049968,0.01600000000000001,-0.4707355547349625,0.01600000000000001,-0.4724530380450157,0.01600000000000001,-0.4746475479227313,0.01600000000000001,-0.4764040533321046,0.01600000000000001,-0.4780220647744392,0.01600000000000001,-0.4809569207614252,0.01600000000000001,-0.4834999590477542,0.01600000000000001,-0.4755109812659075,0.01600000000000001,-0.4693929446617093,0.01600000000000001,-0.4648540239997352
0.01700000000000001,-0.4659169775298488,0.01700000000000001,-0.4698997550795571,0.01700000000000001,-0.4716232029065934,0.01700000000000001,-0.4738225051045581,0.01700000000000001,-0.4755815943328161,0.01700000000000001,-0.4772013655469698,0.01700000000000001,-0.4801384384396074,0.01700000000000001,-0.4826828243579033,0.01700000000000001,-0.4746943300482638,0.01700000000000001,-0.4685766156730088,0.01700000000000001,-0.4640379145225846
0.01800000000000001,-0.4650675279472861,0.01800000000000001,-0.4690640958069124,0.01800000000000001,-0.4707934995790308,0.01800000000000001,-0.4729975856415029,0.01800000000000001,-0.4747592529986362,0.01800000000000001,-0.476380779363639,0.01800000000000001,-0.4793200621086457,0.01800000000000001,-0.4818657905651959,0.01800000000000001,-0.4738777814732121,0.01800000000000001,-0.4677603906399431,0.01800000000000001,-0.4632219099672439
0.01900000000000001,-0.4642182362439095,0.01900000000000001,-0.468228576999314,0.01900000000000001,-0.4699639281426733,0.01900000000000001,-0.472172789612138,0.01900000000000001,-0.4739370294069553,0.01900000000000001,-0.4755603063008348,0.01900000000000001,-0.4785017918432922,0.01900000000000001,-0.4810488577431813,0.01900000000000001,-0.4730613356150728,0.01900000000000001,-0.4669442696374602,0.01900000000000001,-0.4624060104091579
0.02000000000000001,-0.4633691025063204,0.02000000000000001,-0.4673931987390511,0.02000000000000001,-0.4691344886778709,0.02000000000000001,-0.471348117095039,0.02000000000000001,-0.4731149236351646,0.02000000000000001,-0.4747399464349419,0.02000000000000001,-0.4776836277182879,0.02000000000000001,-0.4802320259653864,0.02000000000000001,-0.4722449925481486,0.02000000000000001,-0.4661282527404898,0.02000000000000001,-0.4615902159237526
0.02100000000000001,-0.4625201268211211,0.02100000000000001,-0.4665579611084175,0.02100000000000001,-0.4683051812649773,0.02100000000000001,-0.4705235681687842,0.02100000000000001,-0.4722929357606556,0.02100000000000001,-0.4739196998423448,0.02100000000000001,-0.4768655698083636,0.02100000000000001,-0.4794152953053178,0.02100000000000001,-0.4714287523467223,0.02100000000000001,-0.4653123400239439,0.02100000000000001,-0.4607745265864368
0.02200000000000001,-0.4616713092749161,0.02200000000000001,-0.4657228641897116,0.02200000000000001,-0.4674760059843521,0.02200000000000001,-0.4696991429119565,0.02200000000000001,-0.4714710658608227,0.02200000000000001,-0.4730995665994254,0.02200000000000001,-0.4760476181882412,0.02200000000000001,-0.4785986658364629,0.02200000000000001,-0.4706126150850615,0.02200000000000001,-0.4644965315627187,0.02200000000000001,-0.4599589424726029
0.02300000000000001,-0.4608226499543115,0.02300000000000001,-0.4648879080652367,0.02300000000000001,-0.4666469629163595,0.02300000000000001,-0.4688748414031427,0.02300000000000001,-0.4706493140130623,0.02300000000000001,-0.4722795467825658,0.02300000000000001,-0.4752297729326337,0.02300000000000001,-0.4777821376322909,0.02300000000000001,-0.4697965808374169,0.02300000000000001,-0.4636808274316951,0.02300000000000001,-0.4591434636576284
0.02400000000000001,-0.4599741489459157,0.02400000000000001,-0.4640530928173021,0.02400000000000001,-0.4658180521413702,0.02400000000000001,-0.4680506637209355,0.02400000000000001,-0.4698276802947738,0.02400000000000001,-0.4714596404681488,0.02400000000000001,-0.4744120341162478,0.02400000000000001,-0.4769657107662539,0.02400000000000001,-0.4689806496780251,0.02400000000000001,-0.4628652277057401,0.02400000000000001,-0.4583280902168761
0.02500000000000002,-0.4591258063363387,0.02500000000000002,-0.463218418528222,0.02500000000000002,-0.4649892737397615,0.02500000000000002,-0.4672266099439322,0.02500000000000002,-0.4690061647833613,0.02500000000000002,-0.4706398477325578,0.02500000000000002,-0.4735944018137831,0.02500000000000002,-0.4761493853117882,0.02500000000000002,-0.4681648216811082,0.02500000000000002,-0.462049732459708,0.02500000000000002,-0.4575128222256964
0.02600000000000002,-0.4582776222121941,0.02600000000000002,-0.4623838852803183,0.02600000000000002,-0.4641606277919167,0.02600000000000002,-0.4664026801507368,0.02600000000000002,-0.468184767556232,0.02600000000000002,-0.4698201686521786,0.02600000000000002,-0.4727768760999341,0.02600000000000002,-0.4753331613423155,0.02600000000000002,-0.4673490969208767,0.02600000000000002,-0.4612343417684405,0.02600000000000002,-0.4566976597594267
0.02700000000000002,-0.4574295966600979,0.02700000000000002,-0.4615494931559181,0.02700000000000002,-0.4633321143782273,0.02700000000000002,-0.4655788744199596,0.02700000000000002,-0.4673634886907995,0.02700000000000002,-0.4690006033033989,0.02700000000000002,-0.4719594570493904,0.02700000000000002,-0.4745170389312436,0.02700000000000002,-0.466533475471529,0.02700000000000002,-0.4604190557067691,0.02700000000000002,-0.4558826028933945
0.02800000000000002,-0.4565817297666699,0.02800000000000002,-0.4607152422373559,0.02800000000000002,-0.4625037335790914,0.02800000000000002,-0.4647551928302186,0.02800000000000002,-0.4665423282644817,0.02800000000000002,-0.4681811517626097,0.02800000000000002,-0.471142144736838,0.02800000000000002,-0.473701018151968,0.02800000000000002,-0.4657179574072529,0.02800000000000002,-0.4596038743495151,0.02800000000000002,-0.4550676517029162
0.02900000000000002,-0.4557340216185328,0.02900000000000002,-0.4598811326069737,0.02900000000000002,-0.4616754854749162,0.02900000000000002,-0.4639316354601388,0.02900000000000002,-0.4657212863547032,0.02900000000000002,-0.4673618141062065,0.02900000000000002,-0.4703249392369603,0.02900000000000002,-0.4728850990778721,0.02900000000000002,-0.4649025428022271,0.02900000000000002,-0.458788797771491,0.02900000000000002,-0.4542528062633001
0.03000000000000002,-0.4548864723023128,0.03000000000000002,-0.4590471643471203,0.03000000000000002,-0.4608473701461163,0.03000000000000002,-0.4631082023883533,0.03000000000000002,-0.4649003630388956,0.03000000000000002,-0.4665425904105883,0.03000000000000002,-0.4695078406244384,0.03000000000000002,-0.4720692817823293,0.03000000000000002,-0.4640872317306213,0.03000000000000002,-0.4579738260475011,0.03000000000000002,-0.4534380666498457
0.03100000000000002,-0.4540390819046406,0.03100000000000002,-0.4582133375401535,0.03100000000000002,-0.4600193876731159,0.03100000000000002,-0.4622848936935041,0.03100000000000002,-0.4640795583944975,0.03100000000000002,-0.4657234807521602,0.03100000000000002,-0.468690848973952,0.03100000000000002,-0.4712535663387031,0.03100000000000002,-0.4632720242665977,0.03100000000000002,-0.4571589592523431,0.03100000000000002,-0.4526234329378458
0.03200000000000002,-0.4531918505121508,0.03200000000000002,-0.4573796522684383,0.03200000000000002,-0.4591915381363479,0.03200000000000002,-0.461461709454242,0.03200000000000002,-0.4632588724989553,0.03200000000000002,-0.4649044852073322,0.03200000000000002,-0.4678739643601807,0.03200000000000002,-0.4704379528203487,0.03200000000000002,-0.462456920484312,0.03200000000000002,-0.4563441974608085,0.03200000000000002,-0.4518089052025865
0.03300000000000002,-0.452344778211482,0.03300000000000002,-0.456546108614349,0.03300000000000002,-0.4583638216162551,0.03300000000000002,-0.4606386497492277,0.03300000000000002,-0.4624383054297236,0.03300000000000002,-0.4640856038525213,0.03300000000000002,-0.4670571868578048,0.03300000000000002,-0.4696224413006139,0.03300000000000002,-0.4616419204579142,0.03300000000000002,-0.4555295407476835,0.03300000000000002,-0.4509944835193491
0.03400000000000002,-0.4514978650892781,0.03400000000000002,-0.4557127066602679,0.03400000000000002,-0.4575362381932899,0.03400000000000002,-0.4598157146571311,0.03400000000000002,-0.4616178572642661,0.03400000000000002,-0.4632668367641511,0.03400000000000002,-0.4662405165415043,0.03400000000000002,-0.4688070318528393,0.03400000000000002,-0.4608270242615494,0.03400000000000002,-0.4547149891877499,0.03400000000000002,-0.4501801679634099
0.03500000000000002,-0.4506511112321874,0.03500000000000002,-0.4548794464885875,0.03500000000000002,-0.4567087879479154,0.03500000000000002,-0.458992904256633,0.03500000000000002,-0.460797528080056,0.03500000000000002,-0.462448184018653,0.03500000000000002,-0.465423953485963,0.03500000000000002,-0.4679917245503603,0.03500000000000002,-0.4600122319693589,0.03500000000000002,-0.4539005428557866,0.03500000000000002,-0.4493659586100423
0.03600000000000003,-0.4498045167268631,0.03600000000000003,-0.4540463281817084,0.03600000000000003,-0.4558814709606046,0.03600000000000003,-0.4581702186264247,0.03600000000000003,-0.4599773179545761,0.03600000000000003,-0.4616296456924663,0.03600000000000003,-0.464607497765866,0.03600000000000003,-0.4671765194665074,0.03600000000000003,-0.4591975436554805,0.03600000000000003,-0.4530862018265695,0.03600000000000003,-0.4485518555345167
0.03700000000000003,-0.4489580816599636,0.03700000000000003,-0.453213351822042,0.03700000000000003,-0.4550542873118423,0.03700000000000003,-0.4573476578452088,0.03700000000000003,-0.4591572269653196,0.03700000000000003,-0.4608112218620393,0.03700000000000003,-0.4637911494559022,0.03700000000000003,-0.4663614166746075,0.03700000000000003,-0.4583829593940506,0.03700000000000003,-0.4522719661748733,0.03700000000000003,-0.4477378588121016
0.03800000000000003,-0.4481118061181533,0.03800000000000003,-0.4523805174920091,0.03800000000000003,-0.4542272370821242,0.03800000000000003,-0.4565252219916997,0.03800000000000003,-0.4583372551897908,0.03800000000000003,-0.459992912603829,0.03800000000000003,-0.4629749086307647,0.03800000000000003,-0.4655464162479837,0.03800000000000003,-0.4575684792592038,0.03800000000000003,-0.4514578359754715,0.03800000000000003,-0.4469239685180644
0.03900000000000003,-0.4472656901881012,0.03900000000000003,-0.4515478252740408,0.03900000000000003,-0.4534003203519574,0.03900000000000003,-0.4557029111446235,0.03900000000000003,-0.457517402705505,0.03900000000000003,-0.4591747179943032,0.03900000000000003,-0.4621587753651514,0.03900000000000003,-0.4647315182599582,0.03900000000000003,-0.4567541033250744,0.03900000000000003,-0.4506438113031374,0.03900000000000003,-0.4461101847276726
0.04000000000000003,-0.446419733956483,0.04000000000000003,-0.4507152752505789,0.04000000000000003,-0.4525735372018611,0.04000000000000003,-0.4548807253827188,0.04000000000000003,-0.4566976695899896,0.04000000000000003,-0.4583566381099391,0.04000000000000003,-0.4613427497337657,0.04000000000000003,-0.463916722783851,0.04000000000000003,-0.4559398316657965,0.04000000000000003,-0.4498298922326456,0.04000000000000003,-0.4452965075161941
0.04100000000000003,-0.4455739375099801,0.04100000000000003,-0.4498828675040758,0.04100000000000003,-0.4517468877123673,0.04100000000000003,-0.4540586647847376,0.04100000000000003,-0.4558780559207838,0.04100000000000003,-0.4575386730272253,0.04100000000000003,-0.4605268318113163,0.04100000000000003,-0.4631020298929823,0.04100000000000003,-0.4551256643555064,0.04100000000000003,-0.449016078838772,0.04100000000000003,-0.4444829369588982
0.04200000000000003,-0.4447283009352795,0.04200000000000003,-0.4490506021169948,0.04200000000000003,-0.4509203719640194,0.04200000000000003,-0.4532367294294436,0.04200000000000003,-0.4550585617754405,0.04200000000000003,-0.4567208228226615,0.04200000000000003,-0.45971102167252,0.04200000000000003,-0.4622874396606722,0.04200000000000003,-0.4543116014683411,0.04200000000000003,-0.4482023711962944,0.04200000000000003,-0.4436694731310563
0.04300000000000003,-0.4438828243190753,0.04300000000000003,-0.4482184791718105,0.04300000000000003,-0.4500939900373746,0.04300000000000003,-0.4524149193956156,0.04300000000000003,-0.4542391872315242,0.04300000000000003,-0.4559030875727595,0.04300000000000003,-0.4588953193921005,0.04300000000000003,-0.4614729521602424,0.04300000000000003,-0.4534976430784411,0.04300000000000003,-0.4473887693799948,0.04300000000000003,-0.4428561161079428
0.04400000000000003,-0.4430375077480675,0.04400000000000003,-0.4473864987510092,0.04400000000000003,-0.4492677420130028,0.04400000000000003,-0.4515932347620457,0.04400000000000003,-0.4534199323666141,0.04400000000000003,-0.4550854673540436,0.04400000000000003,-0.4580797250447894,0.04400000000000003,-0.4606585674650164,0.04400000000000003,-0.4526837892599502,0.04400000000000003,-0.4465752734646577,0.04400000000000003,-0.4420428659648361
0.04500000000000003,-0.442192351308963,0.04500000000000003,-0.4465546609370886,0.04500000000000003,-0.4484416279714877,0.04500000000000003,-0.4507716756075397,0.04500000000000003,-0.4526007972583031,0.04500000000000003,-0.4542679622430506,0.04500000000000003,-0.4572642387053278,0.04500000000000003,-0.4598442856483206,0.04500000000000003,-0.4518700400870161,0.04500000000000003,-0.4457618835250731,0.04500000000000003,-0.4412297227770177
0.04600000000000003,-0.4413473550884755,0.04600000000000003,-0.4457229658125588,0.04600000000000003,-0.4476156479934262,0.04600000000000003,-0.4499502420109191,0.04600000000000003,-0.4517817819841982,0.04600000000000003,-0.453450572316331,0.04600000000000003,-0.4564488604484653,0.04600000000000003,-0.4590301067834853,0.04600000000000003,-0.4510563956337917,0.04600000000000003,-0.4449485996360358,0.04600000000000003,-0.4404166866197758
0.04700000000000003,-0.4405025191733259,0.04700000000000003,-0.4448914134599413,0.04700000000000003,-0.4467898021594296,0.04700000000000003,-0.4491289340510196,0.04700000000000003,-0.450962886621922,0.04700000000000003,-0.4526332976504489,0.04700000000000003,-0.4556335903489616,0.04700000000000003,-0.4582160309438439,0.04700000000000003,-0.4502428559744353,0.04700000000000003,-0.4441354218723468,0.04700000000000003,-0.4396037575684034
0.04800000000000004,-0.4396578436502414,0.04800000000000004,-0.4440600039617708,0.04800000000000004,-0.4459640905501234,0.04800000000000004,-0.4483077518066924,0.04800000000000004,-0.4501441112491111,0.04800000000000004,-0.4518161383219829,0.04800000000000004,-0.4548184284815878,0.04800000000000004,-0.4574020582027367,0.04800000000000004,-0.4494294211831116,0.04800000000000004,-0.4433223503088133,0.04800000000000004,-0.4387909356981999
