;Version, 1, 0
;/VP (row=1),;/VP (row=2)
;X, Y,;X, Y
;Re, Re,;Re, Re
;VG, V,;VG, V
;xunit, V,;xunit, V
0,-0.3728513345981528,0,-0.4064415326958924
0.001,-0.3720304675063965,0.001,-0.4056261722518485
0.002,-0.3712097775763922,0.002,-0.4048109305074412
0.003,-0.3703892091904367,0.003,-0.4039958048592113
0.004,-0.3695687624498938,0.004,-0.4031807954122733
0.005,-0.3687484374558262,0.005,-0.402365902271293
0.006,-0.3679282343089956,0.006,-0.4015511255404966
0.007,-0.3671081531098727,0.007,-0.400736465323682
0.008,-0.3662881939586421,0.008,-0.3999219217242198
0.009000000000000001,-0.3654683569552086,0.009000000000000001,-0.3991074948450712
0.01,-0.3646486421992033,0.01,-0.3982931847887905
0.011,-0.3638290497899895,0.011,-0.3974789916575335
0.012,-0.3630095798266661,0.012,-0.3966649155530691
0.013,-0.3621902324080777,0.013,-0.3958509565767819
0.01400000000000001,-0.3613710076328165,0.01400000000000001,-0.3950371148296863
0.01500000000000001,-0.3605519055992283,0.01500000000000001,-0.3942233904124261
0.01600000000000001,-0.3597329264054192,0.01600000000000001,-0.3934097834252894
0.01700000000000001,-0.3589140701492601,0.01700000000000001,-0.3925962939682113
0.01800000000000001,-0.3580953369283902,0.01800000000000001,-0.3917829221407844
0.01900000000000001,-0.3572767268402237,0.01900000000000001,-0.3909696680422617
0.02000000000000001,-0.3564582399819556,0.02000000000000001,-0.390156531771567
0.02100000000000001,-0.3556398764505648,0.02100000000000001,-0.3893435134273004
0.02200000000000001,-0.3548216363428185,0.02200000000000001,-0.3885306131077435
0.02300000000000001,-0.3540035197552793,0.02300000000000001,-0.3877178309108703
0.02400000000000001,-0.353185526784306,0.02400000000000001,-0.3869051669343476
0.02500000000000002,-0.352367657526063,0.02500000000000002,-0.3860926212755454
0.02600000000000002,-0.3515499120765184,0.02600000000000002,-0.3852801940315433
0.02700000000000002,-0.350732290531455,0.02700000000000002,-0.3844678852991333
0.02800000000000002,-0.34991479298647,0.02800000000000002,-0.3836556951748293
0.02900000000000002,-0.349097419536981,0.02900000000000002,-0.3828436237548697
0.03000000000000002,-0.3482801702782285,0.03000000000000002,-0.3820316711352264
0.03100000000000002,-0.3474630453052815,0.03100000000000002,-0.3812198374116076
0.03200000000000002,-0.3466460447130417,0.03200000000000002,-0.3804081226794648
0.03300000000000002,-0.3458291685962459,0.03300000000000002,-0.3795965270339974
0.03400000000000002,-0.3450124170494699,0.03400000000000002,-0.3787850505701603
0.03500000000000002,-0.3441957901671335,0.03500000000000002,-0.3779736933826652
0.03600000000000003,-0.3433792880435033,0.03600000000000003,-0.3771624555659888
0.03700000000000003,-0.3425629107726952,0.03700000000000003,-0.3763513372143761
0.03800000000000003,-0.3417466584486804,0.03800000000000003,-0.3755403384218476
0.03900000000000003,-0.3409305311652877,0.03900000000000003,-0.374729459282201
0.04000000000000003,-0.3401145290162048,0.04000000000000003,-0.3739186998890188
0.04100000000000003,-0.3392986520949849,0.04100000000000003,-0.3731080603356709
0.04200000000000003,-0.3384829004950478,0.04200000000000003,-0.3722975407153193
0.04300000000000003,-0.3376672743096851,0.04300000000000003,-0.3714871411209262
0.04400000000000003,-0.336851773632059,0.04400000000000003,-0.3706768616452527
0.04500000000000003,-0.336036398555213,0.04500000000000003,-0.3698667023808662
0.04600000000000003,-0.3352211491720654,0.04600000000000003,-0.3690566634201463
0.04700000000000003,-0.3344060255754208,0.04700000000000003,-0.3682467448552847
0.04800000000000004,-0.3335910278579676,0.04800000000000004,-0.3674369467782929
0.04900000000000004,-0.3327761561122821,0.04900000000000004,-0.3666272692810057
0.05000000000000004,-0.3319614104308331,0.05000000000000004,-0.3658177124550824
0.05100000000000004,-0.3311467909059829,0.05100000000000004,-0.3650082763920152
0.05200000000000004,-0.3303322976299903,0.05200000000000004,-0.364198961183128
0.05300000000000004,-0.3295179306950139,0.05300000000000004,-0.3633897669195842
0.05400000000000004,-0.3287036901931132,0.05400000000000004,-0.3625806936923876
0.05500000000000004,-0.3278895762162515,0.05500000000000004,-0.3617717415923892
0.05600000000000004,-0.3270755888563022,0.05600000000000004,-0.3609629107102864
0.05700000000000004,-0.3262617282050436,0.05700000000000004,-0.3601542011366309
0.05800000000000004,-0.3254479943541697,0.05800000000000004,-0.3593456129618277
0.05900000000000005,-0.3246343873952854,0.05900000000000005,-0.3585371462761422
0.06000000000000005,-0.3238209074199143,0.06000000000000005,-0.3577288011697025
0.06100000000000005,-0.3230075545194978,0.06100000000000005,-0.3569205777325006
0.06200000000000005,-0.3221943287853972,0.06200000000000005,-0.3561124760543967
0.06300000000000004,-0.3213812303088994,0.06300000000000004,-0.3553044962251248
0.06400000000000004,-0.3205682591812136,0.06400000000000004,-0.3544966383342926
0.06500000000000004,-0.319755415493479,0.06500000000000004,-0.3536889024713851
0.06600000000000004,-0.3189426993367622,0.06600000000000004,-0.3528812887257671
0.06700000000000005,-0.3181301108020619,0.06700000000000005,-0.3520737971866885
0.06800000000000005,-0.3173176499803107,0.06800000000000005,-0.3512664279432855
0.06900000000000005,-0.3165053169623759,0.06900000000000005,-0.3504591810845811
0.07000000000000005,-0.315693111839062,0.07000000000000005,-0.3496520566994939
0.07100000000000005,-0.3148810347011129,0.07100000000000005,-0.3488450548768328
0.07200000000000005,-0.3140690856392147,0.07200000000000005,-0.3480381757053057
0.07300000000000005,-0.3132572647439938,0.07300000000000005,-0.3472314192735211
0.07400000000000005,-0.3124455721060232,0.07400000000000005,-0.3464247856699885
0.07500000000000005,-0.31163400781582,0.07500000000000005,-0.3456182749831215
0.07600000000000005,-0.3108225719638537,0.07600000000000005,-0.3448118873012424
0.07700000000000005,-0.3100112646405388,0.07700000000000005,-0.3440056227125807
0.07800000000000006,-0.3092000859362431,0.07800000000000006,-0.3431994813052803
0.07900000000000006,-0.3083890359412876,0.07900000000000006,-0.3423934631673965
0.08000000000000006,-0.3075781147459475,0.08000000000000006,-0.3415875683869027
0.08100000000000006,-0.3067673224404535,0.08100000000000006,-0.3407817970516915
0.08200000000000006,-0.3059566591149955,0.08200000000000006,-0.339976149249574
0.08300000000000006,-0.3051461248597206,0.08300000000000006,-0.3391706250682852
0.08400000000000006,-0.3043357197647384,0.08400000000000006,-0.3383652245954857
0.08500000000000006,-0.303525443920119,0.08500000000000006,-0.3375599479187619
0.08600000000000006,-0.3027152974158959,0.08600000000000006,-0.3367547951256306
0.08700000000000006,-0.3019052803420684,0.08700000000000006,-0.3359497663035381
0.08800000000000006,-0.3010953927886016,0.08800000000000006,-0.3351448615398652
0.08900000000000007,-0.3002856348454289,0.08900000000000007,-0.334340080921926
0.09000000000000007,-0.2994760066024508,0.09000000000000007,-0.333535424536972
0.09100000000000007,-0.298666508149538,0.09100000000000007,-0.332730892472193
0.09200000000000007,-0.2978571395765345,0.09200000000000007,-0.3319264848147206
0.09300000000000007,-0.2970479009732558,0.09300000000000007,-0.3311222016516256
0.09400000000000007,-0.2962387924294906,0.09400000000000007,-0.3303180430699253
0.09500000000000007,-0.2954298140350022,0.09500000000000007,-0.3295140091565814
0.09600000000000007,-0.2946209658795331,0.09600000000000007,-0.3287100999985031
0.09700000000000007,-0.2938122480527991,0.09700000000000007,-0.3279063156825481
0.09800000000000007,-0.2930036606444974,0.09800000000000007,-0.3271026562955247
0.09900000000000007,-0.292195203744303,0.09900000000000007,-0.3262991219241935
0.1000000000000001,-0.2913868774418721,0.1000000000000001,-0.3254957126552689
0.1010000000000001,-0.2905786818268432,0.1010000000000001,-0.3246924285754199
0.1020000000000001,-0.2897706169888363,0.1020000000000001,-0.3238892697712716
0.1030000000000001,-0.2889626830174553,0.1030000000000001,-0.3230862363294079
0.1040000000000001,-0.2881548800022906,0.1040000000000001,-0.3222833283363727
0.1050000000000001,-0.2873472080329146,0.1050000000000001,-0.32148054587867
0.1060000000000001,-0.2865396671988907,0.1060000000000001,-0.3206778890427663
0.1070000000000001,-0.2857322575897679,0.1070000000000001,-0.3198753579150918
0.1080000000000001,-0.2849249792950815,0.1080000000000001,-0.3190729525820418
0.1090000000000001,-0.2841178324043611,0.1090000000000001,-0.3182706731299776
0.1100000000000001,-0.2833108170071222,0.1100000000000001,-0.3174685196452278
0.1110000000000001,-0.2825039331928734,0.1110000000000001,-0.3166664922140913
0.1120000000000001,-0.2816971810511146,0.1120000000000001,-0.3158645909228357
0.1130000000000001,-0.2808905606713414,0.1130000000000001,-0.3150628158576999
0.1140000000000001,-0.2800840721430382,0.1140000000000001,-0.3142611671048954
0.1150000000000001,-0.279277715555688,0.1150000000000001,-0.3134596447506087
0.1160000000000001,-0.2784714909987671,0.1160000000000001,-0.3126582488809986
0.1170000000000001,-0.2776653985617487,0.1170000000000001,-0.3118569795822028
0.1180000000000001,-0.2768594383341026,0.1180000000000001,-0.3110558369403326
0.1190000000000001,-0.276053610405297,0.1190000000000001,-0.3102548210414801
0.1200000000000001,-0.2752479148647952,0.1200000000000001,-0.3094539319717157
0.1210000000000001,-0.2744423518020637,0.1210000000000001,-0.3086531698170897
0.1220000000000001,-0.2736369213065667,0.1220000000000001,-0.3078525346636338
0.1230000000000001,-0.2728316234677698,0.1230000000000001,-0.307052026597362
0.1240000000000001,-0.2720264583751373,0.1240000000000001,-0.3062516457042723
0.1250000000000001,-0.2712214261181374,0.1250000000000001,-0.3054513920703444
0.1260000000000001,-0.2704165267862408,0.1260000000000001,-0.3046512657815464
0.1270000000000001,-0.2696117604689213,0.1270000000000001,-0.3038512669238299
0.1280000000000001,-0.2688071272556543,0.1280000000000001,-0.3030513955831337
0.1290000000000001,-0.2680026272359213,0.1290000000000001,-0.3022516518453873
0.1300000000000001,-0.2671982604992093,0.1300000000000001,-0.3014520357965046
0.1310000000000001,-0.2663940271350093,0.1310000000000001,-0.3006525475223922
0.1320000000000001,-0.2655899272328182,0.1320000000000001,-0.2998531871089454
0.1330000000000001,-0.2647859608821412,0.1330000000000001,-0.2990539546420529
0.1340000000000001,-0.2639821281724886,0.1340000000000001,-0.2982548502075921
0.1350000000000001,-0.26317842919338,0.1350000000000001,-0.2974558738914374
0.1360000000000001,-0.2623748640343432,0.1360000000000001,-0.2966570257794529
0.1370000000000001,-0.2615714327849128,0.1370000000000001,-0.2958583059574991
0.1380000000000001,-0.2607681355346358,0.1380000000000001,-0.2950597145114327
0.1390000000000001,-0.2599649723730659,0.1390000000000001,-0.2942612515271038
0.1400000000000001,-0.2591619433897691,0.1400000000000001,-0.293462917090361
0.1410000000000001,-0.2583590486743213,0.1410000000000001,-0.2926647112870492
0.1420000000000001,-0.2575562883163106,0.1420000000000001,-0.2918666342030117
0.1430000000000001,-0.256753662405335,0.1430000000000001,-0.2910686859240911
0.1440000000000001,-0.2559511710310056,0.1440000000000001,-0.2902708665361271
0.1450000000000001,-0.2551488142829461,0.1450000000000001,-0.2894731761249629
0.1460000000000001,-0.2543465922507926,0.1460000000000001,-0.2886756147764399
0.1470000000000001,-0.2535445050241976,0.1470000000000001,-0.2878781825764015
0.1480000000000001,-0.2527425526928222,0.1480000000000001,-0.2870808796106932
0.1490000000000001,-0.2519407353463462,0.1490000000000001,-0.2862837059651618
0.1500000000000001,-0.2511390530744612,0.1500000000000001,-0.2854866617256598
0.1510000000000001,-0.2503375059668762,0.1510000000000001,-0.2846897469780407
0.1520000000000001,-0.2495360941133139,0.1520000000000001,-0.2838929618081636
0.1530000000000001,-0.2487348176035132,0.1530000000000001,-0.2830963063018926
0.1540000000000001,-0.247933676527229,0.1540000000000001,-0.2822997805450956
0.1550000000000001,-0.2471326709742346,0.1550000000000001,-0.2815033846236498
0.1560000000000001,-0.2463318010343163,0.1560000000000001,-0.2807071186234347
0.1570000000000001,-0.2455310667972822,0.1570000000000001,-0.2799109826303393
0.1580000000000001,-0.2447304683529536,0.1580000000000001,-0.2791149767302603
0.1590000000000001,-0.2439300057911729,0.1590000000000001,-0.2783191010091004
0.1600000000000001,-0.2431296792017987,0.1600000000000001,-0.2775233555527726
0.1610000000000001,-0.2423294886747099,0.1610000000000001,-0.2767277404471981
0.1620000000000001,-0.2415294342998024,0.1620000000000001,-0.275932255778307
0.1630000000000001,-0.2407295161669923,0.1630000000000001,-0.2751369016320406
0.1640000000000001,-0.2399297343662156,0.1640000000000001,-0.2743416780943487
0.1650000000000001,-0.2391300889874262,0.1650000000000001,-0.2735465852511945
0.1660000000000001,-0.2383305801205994,0.1660000000000001,-0.2727516231885496
0.1670000000000001,-0.2375312078557312,0.1670000000000001,-0.2719567919923979
0.1680000000000001,-0.2367319722828367,0.1680000000000001,-0.2711620917487366
0.1690000000000001,-0.2359328734919526,0.1690000000000001,-0.2703675225435741
0.1700000000000001,-0.2351339115731366,0.1700000000000001,-0.2695730844629326
0.1710000000000001,-0.2343350866164673,0.1710000000000001,-0.268778777592846
0.1720000000000001,-0.233536398712046,0.1720000000000001,-0.267984602019363
0.1730000000000001,-0.2327378479499943,0.1730000000000001,-0.2671905578285469
0.1740000000000001,-0.231939434420457,0.1740000000000001,-0.2663966451064724
0.1750000000000001,-0.2311411582136012,0.1750000000000001,-0.2656028639392331
0.1760000000000001,-0.230343019419615,0.1760000000000001,-0.2648092144129338
0.1770000000000001,-0.2295450181287108,0.1770000000000001,-0.2640156966136967
0.1780000000000001,-0.2287471544311243,0.1780000000000001,-0.2632223106276602
0.1790000000000001,-0.227949428417112,0.1790000000000001,-0.2624290565409764
0.1800000000000001,-0.227151840176956,0.1800000000000001,-0.2616359344398164
0.1810000000000001,-0.2263543898009603,0.1810000000000001,-0.2608429444103662
0.1820000000000001,-0.2255570773794547,0.1820000000000001,-0.2600500865388297
0.1830000000000001,-0.2247599030027907,0.1830000000000001,-0.2592573609114281
0.1840000000000001,-0.223962866761346,0.1840000000000001,-0.2584647676143992
0.1850000000000001,-0.2231659687455206,0.1850000000000001,-0.2576723067339998
0.1860000000000001,-0.2223692090457401,0.1860000000000001,-0.2568799783565043
0.1870000000000001,-0.2215725877524547,0.1870000000000001,-0.2560877825682062
0.1880000000000001,-0.2207761049561394,0.1880000000000001,-0.255295719455417
0.1890000000000001,-0.2199797607472938,0.1890000000000001,-0.2545037891044671
0.1900000000000001,-0.219183555216444,0.1900000000000001,-0.2537119916017073
0.1910000000000001,-0.2183874884541395,0.1910000000000001,-0.2529203270335056
0.1920000000000001,-0.2175915605509558,0.1920000000000001,-0.2521287954862532
0.1930000000000001,-0.2167957715974947,0.1930000000000001,-0.2513373970463582
0.1940000000000001,-0.2160001216843834,0.1940000000000001,-0.2505461318002501
0.1950000000000001,-0.2152046109022749,0.1950000000000001,-0.2497549998343791
0.1960000000000001,-0.2144092393418486,0.1960000000000001,-0.2489640012352155
0.1970000000000001,-0.2136140070938094,0.1970000000000001,-0.2481731360892511
0.1980000000000001,-0.2128189142488891,0.1980000000000001,-0.2473824044829993
0.1990000000000001,-0.212023960897846,0.1990000000000001,-0.2465918065029925
0.2000000000000001,-0.2112291471314638,0.2000000000000001,-0.2458013422357878
0.2010000000000002,-0.2104344730405542,0.2010000000000002,-0.2450110117679613
0.2020000000000002,-0.2096399387159552,0.2020000000000002,-0.244220815186113
0.2030000000000002,-0.2088455442485322,0.2030000000000002,-0.2434307525768644
0.2040000000000002,-0.2080512897291753,0.2040000000000002,-0.2426408240268597
0.2050000000000002,-0.2072571752488057,0.2050000000000002,-0.241851029622764
0.2060000000000002,-0.2064632008983683,0.2060000000000002,-0.241061369451267
0.2070000000000002,-0.2056693667688373,0.2070000000000002,-0.2402718435990809
0.2080000000000002,-0.204875672951213,0.2080000000000002,-0.2394824521529401
0.2090000000000002,-0.2040821195365246,0.2090000000000002,-0.2386931951996027
0.2100000000000002,-0.2032887066158277,0.2100000000000002,-0.2379040728258513
0.2110000000000002,-0.2024954342802059,0.2110000000000002,-0.2371150851184902
0.2120000000000002,-0.2017023026207709,0.2120000000000002,-0.2363262321643479
0.2130000000000002,-0.200909311728662,0.2130000000000002,-0.2355375140502781
0.2140000000000002,-0.2001164616950467,0.2140000000000002,-0.2347489308631567
0.2150000000000002,-0.1993237526111204,0.2150000000000002,-0.2339604826898846
0.2160000000000002,-0.1985311845681073,0.2160000000000002,-0.2331721696173875
0.2170000000000002,-0.1977387576572568,0.2170000000000002,-0.2323839917326143
0.2180000000000002,-0.1969464719698507,0.2180000000000002,-0.2315959491225387
0.2190000000000002,-0.196154327597197,0.2190000000000002,-0.2308080418741601
0.2200000000000002,-0.1953623246306319,0.2200000000000002,-0.2300202700745029
0.2210000000000002,-0.1945704631615194,0.2210000000000002,-0.2292326338106138
0.2220000000000002,-0.1937787432812549,0.2220000000000002,-0.2284451331695686
0.2230000000000002,-0.1929871650812583,0.2230000000000002,-0.2276577682384638
0.2240000000000002,-0.1921957286529815,0.2240000000000002,-0.2268705391044252
0.2250000000000002,-0.1914044340879041,0.2250000000000002,-0.2260834458546017
0.2260000000000002,-0.1906132814775325,0.2260000000000002,-0.2252964885761682
0.2270000000000002,-0.1898222709134045,0.2270000000000002,-0.2245096673563253
0.2280000000000002,-0.189031402487086,0.2280000000000002,-0.2237229822822996
0.2290000000000002,-0.1882406762901712,0.2290000000000002,-0.222936433441343
0.2300000000000002,-0.187450092414282,0.2300000000000002,-0.2221500209207337
0.2310000000000002,-0.1866596509510728,0.2310000000000002,-0.2213637448077756
0.2320000000000002,-0.1858693519922232,0.2320000000000002,-0.2205776051897988
0.2330000000000002,-0.1850791956294446,0.2330000000000002,-0.2197916021541604
0.2340000000000002,-0.1842891819544753,0.2340000000000002,-0.2190057357882419
0.2350000000000002,-0.1834993110590841,0.2350000000000002,-0.2182200061794532
0.2360000000000002,-0.1827095830350685,0.2360000000000002,-0.2174344134152292
0.2370000000000002,-0.1819199979742542,0.2370000000000002,-0.2166489575830319
0.2380000000000002,-0.181130555968498,0.2380000000000002,-0.2158636387703499
0.2390000000000002,-0.1803412571096844,0.2390000000000002,-0.2150784570646985
0.2400000000000002,-0.1795521014897281,0.2400000000000002,-0.2142934125536186
0.2410000000000002,-0.1787630892005722,0.2410000000000002,-0.2135085053246805
0.2420000000000002,-0.1779742203341889,0.2420000000000002,-0.2127237354654785
0.2430000000000002,-0.1771854949825805,0.2430000000000002,-0.2119391030636348
0.2440000000000002,-0.1763969132377786,0.2440000000000002,-0.2111546082068
0.2450000000000002,-0.1756084751918426,0.2450000000000002,-0.2103702509826495
0.2460000000000002,-0.1748201809368639,0.2460000000000002,-0.209586031478888
0.2470000000000002,-0.1740320305649608,0.2470000000000002,-0.2088019497832453
0.2480000000000002,-0.1732440241682822,0.2480000000000002,-0.2080180059834795
0.2490000000000002,-0.1724561618390055,0.2490000000000002,-0.2072342001673755
0.2500000000000002,-0.1716684436693381,0.2500000000000002,-0.2064505324227461
0.2510000000000002,-0.170880869751517,0.2510000000000002,-0.2056670028374301
0.2520000000000002,-0.1700934401778078,0.2520000000000002,-0.2048836114992967
0.2530000000000002,-0.1693061550405057,0.2530000000000002,-0.2041003584962392
0.2540000000000002,-0.1685190144319357,0.2540000000000002,-0.2033172439161795
0.2550000000000002,-0.1677320184444531,0.2550000000000002,-0.2025342678470679
0.2560000000000002,-0.1669451671704392,0.2560000000000002,-0.2017514303768805
0.2570000000000002,-0.1661584607023086,0.2570000000000002,-0.2009687315936234
