;Version, 1, 0
;/M0/D (row=1),;/M0/D (row=2),;/M0/D (row=3),;/M0/D (row=4),;/M0/D (row=5),;/M0/D (row=6),;/M0/D (row=7),;/M0/D (row=8),;/M0/D (row=9),;/M0/D (row=10),;/M0/D (row=11)
;X, Y,;X, Y,;X, Y,;X, Y,;X, Y,;X, Y,;X, Y,;X, Y,;X, Y,;X, Y,;X, Y
;Re, Re,;Re, Re,;Re, Re,;Re, Re,;Re, Re,;Re, Re,;Re, Re,;Re, Re,;Re, Re,;Re, Re,;Re, Re
;VG, I,;VG, I,;VG, I,;VG, I,;VG, I,;VG, I,;VG, I,;VG, I,;VG, I,;VG, I,;VG, I
;xunit, A,;xunit, A,;xunit, A,;xunit, A,;xunit, A,;xunit, A,;xunit, A,;xunit, A,;xunit, A,;xunit, A,;xunit, A
-1.8,-0.0001550054052728232,-1.8,-0.0001199174239954336,-1.8,-0.0001025698770737303,-1.8,-8.605144359633389e-05,-1.8,-7.546381732024004e-05,-1.8,-6.721844432956539e-05,-1.8,-5.51918597529025e-05,-1.8,-4.682863400375394e-05,-1.8,-4.136657537179698e-05,-1.8,-3.70403628378555e-05,-1.8,-3.374287261373653e-05
-1.775,-0.0001530693914409339,-1.775,-0.0001182966515517293,-1.775,-0.0001011306781812431,-1.775,-8.480188108245934e-05,-1.775,-7.434455537479574e-05,-1.775,-6.620539592080392e-05,-1.775,-5.434107218201161e-05,-1.775,-4.609569277169494e-05,-1.775,-4.07094524780789e-05,-1.775,-3.644518774718234e-05,-1.775,-3.319600944617666e-05
-1.75,-0.0001510652054860051,-1.75,-0.000116622917904666,-1.75,-9.964628094351987e-05,-1.75,-8.351460356475762e-05,-1.75,-7.319239525885395e-05,-1.75,-6.516319757551685e-05,-1.75,-5.346657476859846e-05,-1.75,-4.534278999344048e-05,-1.75,-4.003496406461184e-05,-1.75,-3.583465724887919e-05,-1.75,-3.263529445283756e-05
-1.725,-0.0001489919423223906,-1.725,-0.0001148956814917567,-1.725,-9.811629823559186e-05,-1.725,-8.218935177727809e-05,-1.725,-7.20071484749421e-05,-1.725,-6.409170926438165e-05,-1.725,-5.256828694483888e-05,-1.725,-4.456987810712799e-05,-1.725,-3.934309392024148e-05,-1.725,-3.520877471790908e-05,-1.725,-3.206074290437214e-05
-1.7,-0.0001468487427440745,-1.7,-0.0001131144434061669,-1.7,-9.654038235057594e-05,-1.7,-8.082590174373415e-05,-1.7,-7.078865863944984e-05,-1.7,-6.299082032211466e-05,-1.7,-5.164615308602857e-05,-1.7,-4.377693115482843e-05,-1.7,-3.86338453343357e-05,-1.7,-3.456756123374177e-05,-1.7,-3.147238634188386e-05
-1.675,-0.0001446347962825151,-1.675,-0.0001112787500718843,-1.675,-9.49182273610045e-05,-1.675,-7.942406675773009e-05,-1.675,-6.953680319373905e-05,-1.675,-6.186045094272796e-05,-1.675,-5.070014369049877e-05,-1.675,-4.296394574850565e-05,-1.675,-3.790724189022495e-05,-1.675,-3.391105624666379e-05,-1.675,-3.08702731525372e-05
-1.650000000000001,-0.0001423493452345145,-1.650000000000001,-0.0001093881963386825,-1.650000000000001,-9.324957170778249e-05,-1.650000000000001,-7.798369947816999e-05,-1.650000000000001,-6.825149518411724e-05,-1.650000000000001,-6.070055371784337e-05,-1.650000000000001,-4.973025657708839e-05,-1.650000000000001,-4.213094204227851e-05,-1.650000000000001,-3.71633282557243e-05,-1.650000000000001,-3.323931823616847e-05,-1.650000000000001,-3.025446913462109e-05
-1.625000000000001,-0.0001399916887332808,-1.625000000000001,-0.0001074424285996839,-1.625000000000001,-9.153420080192907e-05,-1.625000000000001,-7.650469402884439e-05,-1.625000000000001,-6.693268504115046e-05,-1.625000000000001,-5.951111517111343e-05,-1.625000000000001,-4.87365180751072e-05,-1.625000000000001,-4.127796469560936e-05,-1.625000000000001,-3.640217096045399e-05,-1.625000000000001,-3.255242535413734e-05,-1.625000000000001,-2.962505804657398e-05
-1.600000000000001,-0.0001375611868329836,-1.600000000000001,-0.0001054411479137716,-1.600000000000001,-8.977194962642852e-05,-1.600000000000001,-7.498698809361186e-05,-1.600000000000001,-6.558036235190345e-05,-1.600000000000001,-5.829215728376926e-05,-1.600000000000001,-4.771898420352982e-05,-1.600000000000001,-4.040508382511374e-05,-1.600000000000001,-3.56238591579866e-05,-1.600000000000001,-3.185047605112472e-05,-1.600000000000001,-2.898214213849305e-05
-1.575000000000001,-0.0001350572645703067,-1.575000000000001,-0.0001033841131116734,-1.575000000000001,-8.796270532346261e-05,-1.575000000000001,-7.34305649975579e-05,-1.575000000000001,-6.419455761818134e-05,-1.575000000000001,-5.70437390061366e-05,-1.575000000000001,-4.66777418363072e-05,-1.575000000000001,-3.951239594295346e-05,-1.575000000000001,-3.482850537111783e-05,-1.575000000000001,-3.113358968432274e-05,-1.575000000000001,-2.832584266491805e-05
-1.550000000000001,-0.0001324794159584147,-1.550000000000001,-0.0001012711438604834,-1.550000000000001,-8.61064097498947e-05,-1.550000000000001,-7.183545576340036e-05,-1.550000000000001,-6.277534399334804e-05,-1.550000000000001,-5.57659577498211e-05,-1.550000000000001,-4.561290985091593e-05,-1.550000000000001,-3.860002488016261e-05,-1.550000000000001,-3.401624621894449e-05,-1.550000000000001,-3.040190710614912e-05,-1.550000000000001,-2.765630037802596e-05
-1.525000000000001,-0.0001298272078593405,-1.525000000000001,-9.910212365675385e-05,-1.525000000000001,-8.420306198117931e-05,-1.525000000000001,-7.020174113117495e-05,-1.525000000000001,-6.13228389897896e-05,-1.525000000000001,-5.445895085520574e-05,-1.525000000000001,-4.452464025764321e-05,-1.525000000000001,-3.766812269380247e-05,-1.525000000000001,-3.318724312494606e-05,-1.525000000000001,-2.965559123288909e-05,-1.525000000000001,-2.69736760008354e-05
-1.500000000000001,-0.0001271002836700335,-1.500000000000001,-9.687700271303615e-05,-1.500000000000001,-8.225272074089912e-05,-1.500000000000001,-6.852955352800095e-05,-1.500000000000001,-5.983720614870898e-05,-1.500000000000001,-5.312289702901454e-05,-1.500000000000001,-4.341311930771371e-05,-1.500000000000001,-3.671687055762847e-05,-1.500000000000001,-3.234168300598345e-05,-1.500000000000001,-2.889482759348152e-05,-1.500000000000001,-2.627815068063007e-05
-1.475000000000001,-0.0001242983667453805,-1.475000000000001,-9.459580069714804e-05,-1.475000000000001,-8.025550673010048e-05,-1.475000000000001,-6.68190789736436e-05,-1.475000000000001,-5.831865666378841e-05,-1.475000000000001,-5.175801774711212e-05,-1.475000000000001,-4.227856857930059e-05,-1.475000000000001,-3.574647963706617e-05,-1.475000000000001,-3.147977894314484e-05,-1.475000000000001,-2.81198248594594e-05,-1.475000000000001,-2.556992642365899e-05
-1.450000000000001,-0.0001214212634689364,-1.450000000000001,-9.225860927787231e-05,-1.450000000000001,-7.821160482786803e-05,-1.450000000000001,-6.507055890699151e-05,-1.450000000000001,-5.676745095067443e-05,-1.450000000000001,-5.036457861870514e-05,-1.450000000000001,-4.112124604198571e-05,-1.450000000000001,-3.475719195095237e-05,-1.450000000000001,-3.06017708368205e-05,-1.450000000000001,-2.733081535835492e-05,-1.450000000000001,-2.484922651335103e-05
-1.425000000000001,-0.0001184688658699172,-1.425000000000001,-8.986559442610425e-05,-1.425000000000001,-7.612126613287317e-05,-1.425000000000001,-6.328429191904026e-05,-1.425000000000001,-5.51839001557099e-05,-1.425000000000001,-4.894289071012415e-05,-1.425000000000001,-3.994144710265779e-05,-1.425000000000001,-3.374928122497609e-05,-1.425000000000001,-2.970792605054301e-05,-1.425000000000001,-2.652805557478361e-05,-1.425000000000001,-2.4116295916003e-05
-1.400000000000001,-0.0001154411536751069,-1.400000000000001,-8.741699841816613e-05,-1.400000000000001,-7.398480981622195e-05,-1.400000000000001,-6.146063538054746e-05,-1.400000000000001,-5.356836760074195e-05,-1.400000000000001,-4.74933118301493e-05,-1.400000000000001,-3.873950563979423e-05,-1.400000000000001,-3.272305374554041e-05,-1.400000000000001,-2.879854005138343e-05,-1.400000000000001,-2.571182664626498e-05,-1.400000000000001,-2.337140168043999e-05
-1.375000000000002,-0.000112338195679943,-1.375000000000002,-8.491314149061656e-05,-1.375000000000002,-7.180262476090817e-05,-1.375000000000002,-5.960000695891407e-05,-1.375000000000002,-5.192127016760913e-05,-1.375000000000002,-4.601624778565785e-05,-1.375000000000002,-3.751579503949008e-05,-1.375000000000002,-3.167884922865591e-05,-1.375000000000002,-2.787393705968638e-05,-1.375000000000002,-2.488243486517824e-05,-1.375000000000002,-2.261483334201991e-05
-1.350000000000002,-0.0001091601503294902,-1.350000000000002,-8.235442310755502e-05,-1.350000000000002,-6.957517097605781e-05,-1.350000000000002,-5.770288603182312e-05,-1.350000000000002,-5.024307963842127e-05,-1.350000000000002,-4.451215362820969e-05,-1.350000000000002,-3.627072925705062e-05,-1.350000000000002,-3.061704172769491e-05,-1.350000000000002,-2.693447072871029e-05,-1.350000000000002,-2.404021220497077e-05,-1.350000000000002,-2.184690334730732e-05
-1.325000000000002,-0.0001059072654256973,-1.325000000000002,-7.974132282883344e-05,-1.325000000000002,-6.730298080048503e-05,-1.325000000000002,-5.576981502925612e-05,-1.325000000000002,-4.853432402976806e-05,-1.325000000000002,-4.298153493230219e-05,-1.325000000000002,-3.500476394492166e-05,-1.325000000000002,-2.95380406184056e-05,-1.325000000000002,-2.598052488696015e-05,-1.325000000000002,-2.318551689924646e-05,-1.325000000000002,-2.106794752503519e-05
-1.300000000000002,-0.0001025798769353136,-1.300000000000002,-7.707440082110058e-05,-1.300000000000002,-6.49866599586685e-05,-1.300000000000002,-5.380140077776008e-05,-1.300000000000002,-4.679558899648746e-05,-1.300000000000002,-4.142494917954596e-05,-1.300000000000002,-3.371839771513413e-05,-1.300000000000002,-2.844229172264394e-05,-1.300000000000002,-2.501251439526644e-05,-1.300000000000002,-2.231873411888641e-05,-1.300000000000002,-2.027832564354961e-05
-1.275000000000002,-9.917840698320245e-05,-1.275000000000002,-7.435429814933924e-05,-1.275000000000002,-6.262688861667104e-05,-1.275000000000002,-5.179831599232221e-05,-1.275000000000002,-4.502751944297505e-05,-1.275000000000002,-3.984300737794725e-05,-1.275000000000002,-3.241217364844886e-05,-1.275000000000002,-2.733027866880855e-05,-1.275000000000002,-2.403088620111317e-05,-1.275000000000002,-2.144027681839607e-05,-1.275000000000002,-1.947842211786096e-05
-1.250000000000002,-9.57033613084648e-05,-1.250000000000002,-7.158173714891544e-05,-1.250000000000002,-6.022442272667257e-05,-1.250000000000002,-4.976130117895158e-05,-1.250000000000002,-4.323082158167329e-05,-1.250000000000002,-3.823637613434783e-05,-1.250000000000002,-3.108668123266737e-05,-1.250000000000002,-2.620252464474284e-05,-1.250000000000002,-2.303612072075219e-05,-1.250000000000002,-2.055058686371008e-05,-1.250000000000002,-1.866864696551597e-05
-1.225000000000002,-9.21553267805193e-05,-1.225000000000002,-6.875752244381437e-05,-1.225000000000002,-5.778009617809699e-05,-1.225000000000002,-4.769116740103378e-05,-1.225000000000002,-4.14062658415261e-05,-1.225000000000002,-3.660578054002644e-05,-1.225000000000002,-2.974255902401664e-05,-1.225000000000002,-2.505959478995449e-05,-1.225000000000002,-2.202873375528395e-05,-1.225000000000002,-1.965013661820003e-05,-1.225000000000002,-1.784943716718633e-05
-1.200000000000002,-8.853497008426105e-05,-1.200000000000002,-6.58825436000981e-05,-1.200000000000002,-5.529482463792858e-05,-1.200000000000002,-4.558880066376722e-05,-1.200000000000002,-3.955469128743273e-05,-1.200000000000002,-3.495200845376259e-05,-1.200000000000002,-2.838049850101145e-05,-1.200000000000002,-2.390209961704879e-05,-1.200000000000002,-2.100927926549943e-05,-1.200000000000002,-1.873943126473438e-05,-1.200000000000002,-1.702125867663497e-05
-1.175000000000002,-8.484303948194588e-05,-1.175000000000002,-6.295778106406489e-05,-1.175000000000002,-5.276961253206752e-05,-1.175000000000002,-4.345516914174783e-05,-1.175000000000002,-3.767701261541891e-05,-1.175000000000002,-3.327591711733245e-05,-1.175000000000002,-2.700124985451704e-05,-1.175000000000002,-2.273070007572236e-05,-1.175000000000002,-1.997835351544274e-05,-1.175000000000002,-1.781901229932954e-05,-1.175000000000002,-1.618460946310119e-05
-1.150000000000002,-8.108037277820823e-05,-1.150000000000002,-5.998431804643968e-05,-1.150000000000002,-5.020556549413748e-05,-1.150000000000002,-4.129133520026731e-05,-1.150000000000002,-3.57742314117743e-05,-1.150000000000002,-3.157844358094718e-05,-1.150000000000002,-2.560563088310172e-05,-1.150000000000002,-2.154611521962154e-05,-1.150000000000002,-1.893660138197533e-05,-1.150000000000002,-1.688946287654292e-05,-1.150000000000002,-1.534002418372398e-05
-1.125000000000002,-7.72479164396452e-05,-1.125000000000002,-5.696336253815857e-05,-1.125000000000002,-4.760391193128365e-05,-1.125000000000002,-3.90984752639936e-05,-1.125000000000002,-3.384745431579471e-05,-1.125000000000002,-2.986062124638147e-05,-1.125000000000002,-2.419454081651606e-05,-1.125000000000002,-2.034913397115618e-05,-1.125000000000002,-1.78847260703917e-05,-1.125000000000002,-1.595141606359852e-05,-1.125000000000002,-1.448808141413616e-05
-1.100000000000003,-7.334676350321033e-05,-1.100000000000003,-5.389628590058832e-05,-1.100000000000003,-4.496603932660212e-05,-1.100000000000003,-3.687791223969522e-05,-1.100000000000003,-3.18979221582301e-05,-1.100000000000003,-2.812360609056336e-05,-1.100000000000003,-2.276898188444396e-05,-1.100000000000003,-1.91406332963179e-05,-1.100000000000003,-1.682350415253987e-05,-1.100000000000003,-1.500556763596097e-05,-1.100000000000003,-1.36294148703211e-05
-1.075000000000003,-6.937822177492342e-05,-1.075000000000003,-5.078468775375754e-05,-1.075000000000003,-4.229355377911711e-05,-1.075000000000003,-3.463116763577827e-05,-1.075000000000003,-2.992705627091383e-05,-1.075000000000003,-2.636871800206207e-05,-1.075000000000003,-2.133009294068457e-05,-1.075000000000003,-1.792160633537615e-05,-1.075000000000003,-1.575380886596383e-05,-1.075000000000003,-1.405269591731001e-05,-1.075000000000003,-1.276473081827515e-05
-1.050000000000003,-6.534392926958758e-05,-1.050000000000003,-4.763050154797277e-05,-1.050000000000003,-3.958837540484705e-05,-1.050000000000003,-3.236004403789617e-05,-1.050000000000003,-2.793653124933933e-05,-1.050000000000003,-2.459750539694693e-05,-1.050000000000003,-1.987920165761463e-05,-1.050000000000003,-1.669320587066231e-05,-1.050000000000003,-1.467664613457491e-05,-1.050000000000003,-1.30936924638279e-05,-1.050000000000003,-1.189483500650825e-05
-1.025000000000003,-6.124604130203201e-05,-1.025000000000003,-4.443616163645262e-05,-1.025000000000003,-3.685288795297506e-05,-1.025000000000003,-3.0066753537004e-05,-1.025000000000003,-2.592838781853571e-05,-1.025000000000003,-2.281184517876008e-05,-1.025000000000003,-1.841790498728236e-05,-1.025000000000003,-1.545681118547324e-05,-1.025000000000003,-1.359320999232102e-05,-1.025000000000003,-1.212960928818238e-05,-1.025000000000003,-1.102067412209641e-05
-1.000000000000003,-5.708752345439921e-05,-1.000000000000003,-4.120486117985472e-05,-1.000000000000003,-3.409016863363832e-05,-1.000000000000003,-2.77541143661822e-05,-1.000000000000003,-2.390520540330625e-05,-1.000000000000003,-2.101409546520572e-05,-1.000000000000003,-1.694819202447266e-05,-1.000000000000003,-1.421413014092497e-05,-1.000000000000003,-1.250496723742663e-05,-1.000000000000003,-1.11617310107348e-05,-1.000000000000003,-1.01433991413131e-05
-0.9750000000000029,-5.287259680178017e-05,-0.9750000000000029,-3.794094077603127e-05,-0.9750000000000029,-3.130433370669343e-05,-0.9750000000000029,-2.542584643842261e-05,-0.9750000000000029,-2.187036163408552e-05,-0.9750000000000029,-1.920732545417018e-05,-0.9750000000000029,-1.547262928072772e-05,-0.9750000000000029,-1.296735336770097e-05,-0.9750000000000029,-1.141378539935768e-05,-0.9750000000000029,-1.01916839833081e-05,-0.9750000000000029,-9.264461177258579e-06
-0.9500000000000028,-4.860739536749083e-05,-0.9500000000000028,-3.465045939481979e-05,-0.9500000000000028,-2.850104601400024e-05,-0.9500000000000028,-2.30870060246489e-05,-0.9500000000000028,-1.982841480417552e-05,-0.9500000000000028,-1.739565493927693e-05,-0.9500000000000028,-1.399463546128989e-05,-0.9500000000000028,-1.171938372614783e-05,-0.9500000000000028,-1.032212341477941e-05,-0.9500000000000028,-9.221599040423982e-06,-0.9500000000000028,-8.385754525001286e-06
-0.9250000000000028,-4.430090796939447e-05,-0.9250000000000028,-3.134200914577001e-05,-0.9250000000000028,-2.568823968259501e-05,-0.9250000000000028,-2.074460815140849e-05,-0.9250000000000028,-1.778565322471782e-05,-0.9250000000000028,-1.558474358179102e-05,-0.9250000000000028,-1.251887984452968e-05,-0.9250000000000028,-1.04741706571404e-05,-0.9250000000000028,-9.23331006252788e-06,-0.9250000000000028,-8.254349537917449e-06,-0.9250000000000028,-7.509826117871521e-06
-0.9000000000000028,-3.996628095550306e-05,-0.9000000000000028,-2.802783703116317e-05,-0.9000000000000028,-2.287711841056507e-05,-0.9000000000000028,-1.840848677620945e-05,-0.9000000000000028,-1.575085741988006e-05,-0.9000000000000028,-1.378247255934297e-05,-0.9000000000000028,-1.105184165288274e-05,-0.9000000000000028,-9.237182754734047e-06,-0.9000000000000028,-8.151938900456524e-06,-0.9000000000000028,-7.293889886939212e-06,-0.9000000000000028,-6.640173980575539e-06
-0.8750000000000028,-3.562254221621725e-05,-0.8750000000000028,-2.472531716861089e-05,-0.8750000000000028,-2.008346451388622e-05,-0.8750000000000028,-1.60924257785955e-05,-0.8750000000000028,-1.373630643862324e-05,-0.8750000000000028,-1.199984880452323e-05,-0.8750000000000028,-9.60255910039306e-06,-0.8750000000000028,-8.016045798441016e-06,-0.8750000000000028,-7.08440461090184e-06,-0.8750000000000028,-6.345717318608839e-06,-0.8750000000000028,-5.781655607736338e-06
-0.8500000000000028,-3.129674862063277e-05,-0.8500000000000028,-2.145875356663921e-05,-0.8500000000000028,-1.732923423733673e-05,-0.8500000000000028,-1.381553738336976e-05,-0.8500000000000028,-1.175900851542079e-05,-0.8500000000000028,-1.025211622306933e-05,-0.8500000000000028,-8.183559889010413e-06,-0.8500000000000028,-6.821343297323334e-06,-0.8500000000000028,-6.039582787036668e-06,-0.8500000000000028,-5.41746155047869e-06,-0.8500000000000028,-4.941012268686829e-06
-0.8250000000000027,-2.702642622405365e-05,-0.8250000000000027,-1.82613530134857e-05,-0.8250000000000027,-1.464427762971177e-05,-0.8250000000000027,-1.160373670018366e-05,-0.8250000000000027,-9.842017897505987e-06,-0.8250000000000027,-8.559949273990769e-06,-0.8250000000000027,-6.811872537404946e-06,-0.8250000000000027,-5.667497390944795e-06,-0.8250000000000027,-5.029592729351415e-06,-0.8250000000000027,-4.51955597970717e-06,-0.8250000000000027,-4.127471871937749e-06
-0.8000000000000027,-2.286192602289119e-05,-0.8000000000000027,-1.517695096497474e-05,-0.8000000000000027,-1.206776985608723e-05,-0.8000000000000027,-9.490923277599457e-06,-0.8000000000000027,-8.015475839749524e-06,-0.8000000000000027,-6.950394475314564e-06,-0.8000000000000027,-5.509833596703332e-06,-0.8000000000000027,-4.573484769668896e-06,-0.8000000000000027,-4.070450734150757e-06,-0.8000000000000027,-3.665833810477075e-06,-0.8000000000000027,-3.353297886680186e-06
-0.7750000000000027,-1.886792939778035e-05,-0.7750000000000027,-1.226067754672814e-05,-0.7750000000000027,-9.648553813908683e-06,-0.7750000000000027,-7.519111522139564e-06,-0.7750000000000027,-6.316662037174794e-06,-0.7750000000000027,-5.456890810826005e-06,-0.7750000000000027,-4.305102874359676e-06,-0.7750000000000027,-3.562866648446517e-06,-0.7750000000000027,-3.182191586170349e-06,-0.7750000000000027,-2.873696460257981e-06,-0.7750000000000027,-2.633979783912002e-06
-0.7500000000000027,-1.512283158176703e-05,-0.7500000000000027,-9.57726089398677e-06,-0.7500000000000027,-7.443123843077971e-06,-0.7500000000000027,-5.736307569274757e-06,-0.7500000000000027,-4.787918520884049e-06,-0.7500000000000027,-4.117293500484339e-06,-0.7500000000000027,-3.228922771837995e-06,-0.7500000000000027,-2.662261865893964e-06,-0.7500000000000027,-2.387728629657582e-06,-0.7500000000000027,-2.163229344708966e-06,-0.7500000000000027,-1.987515213106254e-06
