;Version, 1, 0
;/M0/D (row=1),;/M0/D (row=2),;/M0/D (row=3),;/M0/D (row=4),;/M0/D (row=5),;/M0/D (row=6),;/M0/D (row=7),;/M0/D (row=8),;/M0/D (row=9),;/M0/D (row=10),;/M0/D (row=11)
;X, Y,;X, Y,;X, Y,;X, Y,;X, Y,;X, Y,;X, Y,;X, Y,;X, Y,;X, Y,;X, Y
;Re, Re,;Re, Re,;Re, Re,;Re, Re,;Re, Re,;Re, Re,;Re, Re,;Re, Re,;Re, Re,;Re, Re,;Re, Re
;VD, I,;VD, I,;VD, I,;VD, I,;VD, I,;VD, I,;VD, I,;VD, I,;VD, I,;VD, I,;VD, I
;xunit, A,;xunit, A,;xunit, A,;xunit, A,;xunit, A,;xunit, A,;xunit, A,;xunit, A,;xunit, A,;xunit, A,;xunit, A
-1.8,-0.000382364579877359,-1.8,-0.0002544824491998928,-1.8,-0.0002014648086729874,-1.8,-0.0001569257451545088,-1.8,-0.0001312444479426151,-1.8,-0.0001126932471526024,-1.8,-8.774166822348075e-05,-1.8,-7.174571151532073e-05,-1.8,-6.235402219661306e-05,-1.8,-5.513349851665717e-05,-1.8,-4.974825066323362e-05
-1.775,-0.0003817725538629626,-1.775,-0.0002541859510530897,-1.775,-0.0002012705035211722,-1.775,-0.0001568043417729369,-1.775,-0.0001311584750054837,-1.775,-0.0001126293975310144,-1.775,-8.77025292980809e-05,-1.775,-7.171920794250155e-05,-1.775,-6.23345376945311e-05,-1.775,-5.511850329650617e-05,-1.775,-4.973614615831973e-05
-1.75,-0.0003811806123051514,-1.75,-0.0002538893068241992,-1.75,-0.0002010760230534946,-1.75,-0.0001566827731185404,-1.75,-0.0001310723571889061,-1.75,-0.0001125654238456719,-1.75,-8.766330052377899e-05,-1.75,-7.169263837349544e-05,-1.75,-6.231500113064071e-05,-1.75,-5.510346647402634e-05,-1.75,-4.972400742112853e-05
-1.725,-0.0003805885274006283,-1.725,-0.0002535923960340411,-1.725,-0.0002008812843381042,-1.725,-0.0001565609840244416,-1.725,-0.0001309860535260665,-1.725,-0.0001125012944451911,-1.725,-8.762396135012063e-05,-1.725,-7.166598838163489e-05,-1.725,-6.229540145372078e-05,-1.725,-5.508837930433065e-05,-1.725,-4.97118272571887e-05
-1.7,-0.0003799960523874361,-1.7,-0.0002532950897343173,-1.7,-0.0002006861989492971,-1.7,-0.0001564389157618362,-1.7,-0.0001308995203891278,-1.7,-0.0001124369755803275,-1.7,-8.758448978072017e-05,-1.7,-7.163924245348391e-05,-1.7,-6.227572672927676e-05,-1.7,-5.507323230195818e-05,-1.7,-4.969959783022242e-05
-1.675,-0.0003794029234057889,-1.675,-0.0002529972502403551,-1.675,-0.0002004906725778156,-1.675,-0.000156316505788028,-1.675,-0.0001308127113754526,-1.675,-0.0001123724313984969,-1.675,-8.75448625010982e-05,-1.675,-7.161238418071478e-05,-1.675,-6.225596435527091e-05,-1.675,-5.505801546700579e-05,-1.675,-4.968731089107229e-05
-1.650000000000001,-0.0003788088582874115,-1.650000000000001,-0.000252698730493031,-1.650000000000001,-0.0002002946045920422,-1.650000000000001,-0.0001561936874543668,-1.650000000000001,-0.0001307255770902965,-1.650000000000001,-0.0001123076237753548,-1.650000000000001,-8.750505476837111e-05,-1.650000000000001,-7.158539618182885e-05,-1.650000000000001,-6.223610100113349e-05,-1.650000000000001,-5.504271823608508e-05,-1.650000000000001,-4.96749577367662e-05
-1.625000000000001,-0.0003782135552732711,-1.625000000000001,-0.0002523993733825343,-1.625000000000001,-0.000200097887572845,-1.625000000000001,-0.0001560703896965918,-1.625000000000001,-0.0001306380649163885,-1.625000000000001,-0.000112242512136219,-1.625000000000001,-8.746504029429492e-05,-1.625000000000001,-7.155826001915778e-05,-1.625000000000001,-6.221612254310559e-05,-1.625000000000001,-5.502732943031973e-05,-1.625000000000001,-4.966252916712371e-05
-1.600000000000001,-0.0003776166916560152,-1.600000000000001,-0.0002520990110319595,-1.600000000000001,-0.0001999004068206326,-1.600000000000001,-0.0001559465367066398,-1.600000000000001,-0.0001305501187697037,-1.600000000000001,-0.0001121770532667874,-1.600000000000001,-8.742479112129545e-05,-1.600000000000001,-7.153095611092089e-05,-1.600000000000001,-6.219601399570245e-05,-1.600000000000001,-5.50118372002338e-05,-1.600000000000001,-4.965001543875563e-05
-1.575000000000001,-0.0003770179223429818,-1.575000000000001,-0.0002517974640385323,-1.575000000000001,-0.000199702039833142,-1.575000000000001,-0.0001558220475848626,-1.575000000000001,-0.0001304616788406488,-1.575000000000001,-0.000112111201112533,-1.575000000000001,-8.738427749110852e-05,-1.575000000000001,-7.150346363803436e-05,-1.575000000000001,-6.217575943909026e-05,-1.575000000000001,-5.499622896734429e-05,-1.575000000000001,-4.963740621632518e-05
-1.550000000000001,-0.0003764168783356544,-1.550000000000001,-0.0002514945406701097,-1.550000000000001,-0.0001995026557522891,-1.550000000000001,-0.0001556968359715978,-1.550000000000001,-0.000130372681319843,-1.550000000000001,-0.0001120449065661744,-1.550000000000001,-8.734346770560541e-05,-1.550000000000001,-7.147576044539528e-05,-1.550000000000001,-6.215534194212642e-05,-1.550000000000001,-5.498049136225653e-05,-1.550000000000001,-4.962469052088576e-05
-1.525000000000001,-0.0003758131651209585,-1.525000000000001,-0.0002511900360145213,-1.525000000000001,-0.0001993021147783453,-1.525000000000001,-0.0001555708096568668,-1.525000000000001,-0.0001302830581075946,-1.525000000000001,-0.0001119781172424777,-1.525000000000001,-8.730232797932259e-05,-1.525000000000001,-7.144782293729266e-05,-1.525000000000001,-6.21347434807968e-05,-1.525000000000001,-5.496461015905122e-05,-1.525000000000001,-4.961185667511874e-05
-1.500000000000001,-0.0003752063609695014,-1.500000000000001,-0.0002508837310790024,-1.500000000000001,-0.0001991002675495443,-1.500000000000001,-0.0001554438701669004,-1.500000000000001,-0.0001301927365060802,-1.500000000000001,-0.000111910777239636,-1.500000000000001,-8.726082228319001e-05,-1.500000000000001,-7.141962596657382e-05,-1.500000000000001,-6.211394485174302e-05,-1.500000000000001,-5.494857020569409e-05,-1.500000000000001,-4.959889224524148e-05
-1.475000000000001,-0.0003745960151355314,-1.475000000000001,-0.0002505753918368251,-1.475000000000001,-0.0001988969544850487,-1.475000000000001,-0.0001553159123261266,-1.475000000000001,-0.0001301016388931774,-1.475000000000001,-0.0001118428268863867,-1.475000000000001,-8.721891217889063e-05,-1.475000000000001,-7.139114271715317e-05,-1.475000000000001,-6.209292558053592e-05,-1.475000000000001,-5.493235535019113e-05,-1.475000000000001,-4.958578397934506e-05
-1.450000000000001,-0.0003739816459527224,-1.450000000000001,-0.0002502647682179467,-1.450000000000001,-0.0001986920050890358,-1.450000000000001,-0.0001551868237929972,-1.450000000000001,-0.0001300096823767335,-1.450000000000001,-0.0001117742024739004,-1.450000000000001,-8.717655664318817e-05,-1.450000000000001,-7.136234457938336e-05,-1.450000000000001,-6.207166382430478e-05,-1.450000000000001,-5.491594836214793e-05,-1.450000000000001,-4.957251774187203e-05
-1.425000000000001,-0.0003733627388194705,-1.425000000000001,-0.0002499515930401364,-1.425000000000001,-0.0001984852372133758,-1.425000000000001,-0.0001550564845679892,-1.425000000000001,-0.0001299167784279795,-1.425000000000001,-0.0001117048359714224,-1.425000000000001,-8.713371188152097e-05,-1.425000000000001,-7.133320101777072e-05,-1.425000000000001,-6.205013626827569e-05,-1.425000000000001,-5.48993308493656e-05,-1.425000000000001,-4.955907844389926e-05
-1.400000000000001,-0.0003727387440663928,-1.400000000000001,-0.0002496355808766723,-1.400000000000001,-0.0001982764562761721,-1.400000000000001,-0.00015492476647183,-1.400000000000001,-0.000129822832492587,-1.400000000000001,-0.0001116346547244554,-1.400000000000001,-8.709033113004466e-05,-1.400000000000001,-7.130367943041646e-05,-1.400000000000001,-6.202831801571082e-05,-1.400000000000001,-5.488248316902509e-05,-1.400000000000001,-4.954544996885122e-05
-1.375000000000002,-0.0003721090746978118,-1.375000000000002,-0.0002493164268561352,-1.375000000000002,-0.000198065454432956,-1.375000000000002,-0.0001547915325917614,-1.375000000000002,-0.0001297277435777078,-1.375000000000002,-0.0001115635811341616,-1.375000000000002,-8.704636444517462e-05,-1.375000000000002,-7.127374499948084e-05,-1.375000000000002,-6.200618247064686e-05,-1.375000000000002,-5.486538433295416e-05,-1.375000000000002,-4.953161509318609e-05
-1.350000000000002,-0.0003714731039975927,-1.350000000000002,-0.0002489938053892146,-1.350000000000002,-0.0001978520096970012,-1.350000000000002,-0.0001546566366933847,-1.350000000000002,-0.0001296314038130661,-1.350000000000002,-0.0001114915323164427,-1.350000000000002,-8.700175847957337e-05,-1.350000000000002,-7.12433605318834e-05,-1.350000000000002,-6.198370121275429e-05,-1.350000000000002,-5.484801190638198e-05,-1.350000000000002,-4.951755540153017e-05
-1.325000000000002,-0.0003708301629879496,-1.325000000000002,-0.0002486673688165634,-1.325000000000002,-0.0001976358850045424,-1.325000000000002,-0.0001545199225951741,-1.325000000000002,-0.0001295336979839071,-1.325000000000002,-0.0001114184197389053,-1.325000000000002,-8.695645624331766e-05,-1.325000000000002,-7.121248628927222e-05,-1.325000000000002,-6.196084386350465e-05,-1.325000000000002,-5.483034189947316e-05,-1.325000000000002,-4.950325119564286e-05
-1.300000000000002,-0.0003701795377274576,-1.300000000000002,-0.0002483367459706096,-1.300000000000002,-0.0001974168272199892,-1.300000000000002,-0.0001543812235023014,-1.300000000000002,-0.0001294345030331629,-1.300000000000002,-0.0001113441488336291,-1.300000000000002,-8.691039684878393e-05,-1.300000000000002,-7.118107980616657e-05,-1.300000000000002,-6.193757794268901e-05,-1.300000000000002,-5.481234865082275e-05,-1.300000000000002,-4.948868139646902e-05
-1.275000000000002,-0.0003695204664313852,-1.275000000000002,-0.0002480015406428175,-1.275000000000002,-0.0001971945660752466,-1.275000000000002,-0.0001542403612957195,-1.275000000000002,-0.0001293336875297644,-1.275000000000002,-0.0001112686185832592,-1.275000000000002,-8.68635152375088e-05,-1.275000000000002,-7.114909569493934e-05,-1.275000000000002,-6.191386871414798e-05,-1.275000000000002,-5.479400470190148e-05,-1.275000000000002,-4.947382343839904e-05
-1.250000000000002,-0.0003688521363933477,-1.250000000000002,-0.0002476613299459181,-1.250000000000002,-0.0001969688130359505,-1.250000000000002,-0.0001540971457716461,-1.250000000000002,-0.0001292311110993668,-1.250000000000002,-0.0001111917210774038,-1.250000000000002,-8.681574188690949e-05,-1.250000000000002,-7.11164854360537e-05,-1.250000000000002,-6.188967901934184e-05,-1.250000000000002,-5.477528066126458e-05,-1.250000000000002,-4.945865315465804e-05
-1.225000000000002,-0.0003681736806817325,-1.225000000000002,-0.0002473156625581185,-1.225000000000002,-0.0001967392600857839,-1.225000000000002,-0.0001539513738254589,-1.225000000000002,-0.0001291266238128893,-1.225000000000002,-0.0001111133410357173,-1.225000000000002,-8.676700249432959e-05,-1.225000000000002,-7.108319715161419e-05,-1.225000000000002,-6.18649690970931e-05,-1.225000000000002,-5.475614505705769e-05,-1.225000000000002,-4.944314465254166e-05
-1.200000000000002,-0.0003674841745771211,-1.200000000000002,-0.000246964056832926,-1.200000000000002,-0.0001965055784178089,-1.200000000000002,-0.000153802828572591,-1.200000000000002,-0.0001290200655272855,-1.200000000000002,-0.0001110333552931601,-1.200000000000002,-8.671721763524808e-05,-1.200000000000002,-7.104917535985751e-05,-1.200000000000002,-6.183969638744641e-05,-1.200000000000002,-5.473656417603794e-05,-1.200000000000002,-4.94272701768799e-05
-1.175000000000002,-0.0003667826317073538,-1.175000000000002,-0.0002466059987538269,-1.175000000000002,-0.0001962674170188423,-1.175000000000002,-0.0001536512783970964,-1.175000000000002,-0.0001289112651714245,-1.175000000000002,-0.0001109516322418084,-1.175000000000002,-8.666630239175203e-05,-1.175000000000002,-7.101436070762046e-05,-1.175000000000002,-6.181381531711645e-05,-1.175000000000002,-5.471650188688354e-05,-1.175000000000002,-4.941099995977843e-05
-1.150000000000002,-0.0003660679998241766,-1.150000000000002,-0.000246240939707095,-1.150000000000002,-0.0001960244011290529,-1.150000000000002,-0.0001534964759160687,-1.150000000000002,-0.0001288000399681769,-1.150000000000002,-0.0001108680312221253,-1.150000000000002,-8.661416594636214e-05,-1.150000000000002,-7.097868967710179e-05,-1.150000000000002,-6.178727706333352e-05,-1.150000000000002,-5.469591944503001e-05,-1.150000000000002,-4.939430205414868e-05
-1.125000000000002,-0.0003653391561489117,-1.125000000000002,-0.0002458682940384156,-1.125000000000002,-0.0001957761305538596,-1.125000000000002,-0.0001533381568447673,-1.125000000000002,-0.0001286861945813186,-1.125000000000002,-0.0001107824018547096,-1.125000000000002,-8.656071113497262e-05,-1.125000000000002,-7.094209426221613e-05,-1.125000000000002,-6.176002929209129e-05,-1.125000000000002,-5.467477527553784e-05,-1.125000000000002,-4.937714214793482e-05
-1.100000000000003,-0.0003645949021928765,-1.100000000000003,-0.0002454874363486803,-1.100000000000003,-0.0001955221777984923,-1.100000000000003,-0.0001531760387429253,-1.100000000000003,-0.0001285695201725629,-1.100000000000003,-0.0001106945833008975,-1.100000000000003,-8.650583395093856e-05,-1.100000000000003,-7.09045016085784e-05,-1.100000000000003,-6.173201586568542e-05,-1.100000000000003,-5.465302472955709e-05,-1.100000000000003,-4.935948335508899e-05
-1.075000000000003,-0.0003638339579299144,-1.075000000000003,-0.000245097698471028,-1.075000000000003,-0.0001952620859867526,-1.075000000000003,-0.0001530098196169722,-1.075000000000003,-0.0001284497933497967,-1.075000000000003,-0.0001106044034373161,-1.075000000000003,-8.644942299006174e-05,-1.075000000000003,-7.086583360943766e-05,-1.075000000000003,-6.170317651300373e-05,-1.075000000000003,-5.4630619808707e-05,-1.075000000000003,-4.934128597824414e-05
-1.050000000000003,-0.0003630549551615364,-1.050000000000003,-0.0002446983660534571,-1.050000000000003,-0.0001949953665137548,-1.050000000000003,-0.0001528391763451888,-1.050000000000003,-0.0001283267749818235,-1.050000000000003,-0.0001105116779249348,-1.050000000000003,-8.639135882313766e-05,-1.050000000000003,-7.082600644761927e-05,-1.050000000000003,-6.167344645411085e-05,-1.050000000000003,-5.460750885004289e-05,-1.050000000000003,-4.932250723659144e-05
-1.025000000000003,-0.0003622564298672837,-1.025000000000003,-0.000244288674648284,-1.025000000000003,-0.000194721496367045,-1.025000000000003,-0.0001526637628827367,-1.025000000000003,-0.0001282002088473802,-1.025000000000003,-0.0001104162091472606,-1.025000000000003,-8.633151327873784e-05,-1.025000000000003,-7.078493007051974e-05,-1.025000000000003,-6.164275596814025e-05,-1.025000000000003,-5.458363616209382e-05,-1.025000000000003,-4.930310095051665e-05
-1.000000000000003,-0.0003614368132704218,-1.000000000000003,-0.0002438678051792222,-1.000000000000003,-0.0001944399150300507,-1.000000000000003,-0.0001524832081899897,-1.000000000000003,-0.0001280698200760934,-1.000000000000003,-0.0001103177849843562,-1.000000000000003,-8.626974861340919e-05,-1.000000000000003,-7.074250758119765e-05,-1.000000000000003,-6.161102989010259e-05,-1.000000000000003,-5.455894159952023e-05,-1.000000000000003,-4.928301717195462e-05
-0.9750000000000029,-0.0003605944212680785,-0.9750000000000029,-0.0002434348786167165,-0.9750000000000029,-0.0001941500208548459,-0.9750000000000029,-0.0001522971138097579,-0.9750000000000029,-0.0001279353133256057,-0.9750000000000029,-0.0001102161773788083,-0.9750000000000029,-8.620591653931808e-05,-0.9750000000000029,-7.0698634523169e-05,-0.9750000000000029,-6.157818701766732e-05,-0.9750000000000029,-5.453336006000257e-05,-0.9750000000000029,-4.92622017459544e-05
-0.9500000000000028,-0.000359727441768763,-0.9500000000000028,-0.0002429889496392091,-0.9500000000000028,-0.0001938511667552599,-0.9500000000000028,-0.000152105050995016,-0.9500000000000028,-0.0001277963706210769,-0.9500000000000028,-0.0001101111406354846,-0.9500000000000028,-8.613985706949865e-05,-0.9500000000000028,-7.065319802926576e-05,-0.9500000000000028,-6.154413940280075e-05,-0.9500000000000028,-5.4506820881653e-05,-0.9500000000000028,-4.924059578420234e-05
-0.9250000000000028,-0.0003588339193412433,-0.9250000000000028,-0.0002425289989874412,-0.9250000000000028,-0.0001935426550233329,-0.9250000000000028,-0.0001519065572566239,-0.9250000000000028,-0.0001276526487589638,-0.9250000000000028,-0.0001100024093777195,-0.9250000000000028,-8.607139712768991e-05,-0.9250000000000028,-7.060607579497236e-05,-0.9250000000000028,-6.150879149474757e-05,-0.9250000000000028,-5.447924711195272e-05,-0.9250000000000028,-4.921813502480304e-05
-0.9000000000000028,-0.0003579117363929737,-0.9000000000000028,-0.0002420539241244676,-0.9000000000000028,-0.0001932237310074954,-0.9000000000000028,-0.0001517011321569655,-0.9000000000000028,-0.0001275037761438899,-0.9000000000000028,-0.0001098896960563017,-0.9000000000000028,-8.600034885157262e-05,-0.9000000000000028,-7.055713482311404e-05,-0.9000000000000028,-6.147203908933536e-05,-0.9000000000000028,-5.445055460924086e-05,-0.9000000000000028,-4.919474904375327e-05
-0.8750000000000028,-0.0003569585898471632,-0.8750000000000028,-0.0002415625276853636,-0.8750000000000028,-0.0001928935753023741,-0.8750000000000028,-0.0001514882321158745,-0.8750000000000028,-0.0001273493488822693,-0.8750000000000028,-0.0001097726878716681,-0.8750000000000028,-8.592650749324762e-05,-0.8750000000000028,-7.050622986793161e-05,-0.8750000000000028,-6.143376802353817e-05,-0.8750000000000028,-5.442065092385304e-05,-0.8750000000000028,-4.91703602711456e-05
-0.8500000000000028,-0.0003559719619431047,-0.8500000000000028,-0.0002410535030234536,-0.8500000000000028,-0.0001925512939781654,-0.8500000000000028,-0.000151267263912289,-0.8500000000000028,-0.0001271889258929985,-0.8500000000000028,-0.0001096510429193134,-0.8500000000000028,-8.584964878586678e-05,-0.8500000000000028,-7.04532014804138e-05,-0.8500000000000028,-6.139385253190598e-05,-0.8500000000000028,-5.438943388655244e-05,-0.8500000000000028,-4.914488274780063e-05
-0.8250000000000027,-0.0003549490832982941,-0.8250000000000027,-0.0002405254159099018,-0.8250000000000027,-0.0001921959062051933,-0.8250000000000027,-0.0001510375764484884,-0.8250000000000027,-0.000127022022706684,-0.8250000000000027,-0.0001095243852974709,-0.8250000000000027,-8.576952559577263e-05,-0.8250000000000027,-7.039787351927963e-05,-0.8250000000000027,-6.135215314941941e-05,-0.8250000000000027,-5.435678980394141e-05,-0.8250000000000027,-4.911822053308545e-05
-0.8000000000000027,-0.0003538868856623237,-0.8000000000000027,-0.0002399766810822935,-0.8000000000000027,-0.0001918263283811709,-0.8000000000000027,-0.0001507984501755283,-0.8000000000000027,-0.0001268481034965229,-0.8000000000000027,-0.0001093922988137398,-0.8000000000000027,-8.56858636082618e-05,-0.8000000000000027,-7.03400499383941e-05,-0.8000000000000027,-6.130851399934533e-05,-0.8000000000000027,-5.432259112035582e-05,-0.8000000000000027,-4.909026563877734e-05
-0.7750000000000027,-0.0003527819407255858,-0.7750000000000027,-0.0002394055318016895,-0.7750000000000027,-0.0001914413535019724,-0.7750000000000027,-0.0001505490833310215,-0.7750000000000027,-0.0001266665706954387,-0.7750000000000027,-0.0001092543187770671,-0.7750000000000027,-8.55983556903746e-05,-0.7750000000000027,-7.027951058242138e-05,-0.7750000000000027,-6.126275923683434e-05,-0.7750000000000027,-5.428669334641157e-05,-0.7750000000000027,-4.906089531072797e-05
-0.7500000000000027,-0.0003516303796863945,-0.7500000000000027,-0.000238809979757707,-0.7500000000000027,-0.0001910396239600795,-0.7500000000000027,-0.0001502885737666598,-0.7500000000000027,-0.0001264767512703282,-0.7500000000000027,-0.0001091099211356721,-0.7500000000000027,-8.550665441727644e-05,-0.7500000000000027,-7.021600560444722e-05,-0.7500000000000027,-6.121468831748978e-05,-0.7500000000000027,-5.4248930965397e-05,-0.7500000000000027,-4.902996840049854e-05
