;Version, 1, 0
;/VP (row=1),;/VP (row=2),;/VP (row=3),;/VP (row=4),;/VP (row=5),;/VP (row=6),;/VP (row=7),;/VP (row=8),;/VP (row=9),;/VP (row=10),;/VP (row=11)
;X, Y,;X, Y,;X, Y,;X, Y,;X, Y,;X, Y,;X, Y,;X, Y,;X, Y,;X, Y,;X, Y
;Re, Re,;Re, Re,;Re, Re,;Re, Re,;Re, Re,;Re, Re,;Re, Re,;Re, Re,;Re, Re,;Re, Re,;Re, Re
;VG, V,;VG, V,;VG, V,;VG, V,;VG, V,;VG, V,;VG, V,;VG, V,;VG, V,;VG, V,;VG, V
;xunit, V,;xunit, V,;xunit, V,;xunit, V,;xunit, V,;xunit, V,;xunit, V,;xunit, V,;xunit, V,;xunit, V,;xunit, V
-1.8,-0.8250457621099849,-1.8,-0.7975316500344845,-1.8,-0.7853390638077362,-1.8,-0.7747743592561734,-1.8,-0.7687647544432137,-1.8,-0.7646526254656484,-1.8,-0.7595961806415025,-1.8,-0.7567246554416505,-1.8,-0.7575781670639264,-1.8,-0.7583705567376334,-1.8,-0.7590057656953935
-1.79,-0.8174908066461773,-1.79,-0.7900138731697172,-1.79,-0.7778416560974099,-1.79,-0.7672969636622038,-1.79,-0.7612993256835161,-1.79,-0.7571941466690101,-1.79,-0.7521460145114642,-1.79,-0.7492777794785259,-1.79,-0.7501323371327248,-1.79,-0.7509246697440267,-1.79,-0.7515594306489779
-1.78,-0.8099309372964172,-1.78,-0.7824976204228958,-1.78,-0.7703478010506066,-1.78,-0.7598232727448594,-1.78,-0.7538370733740183,-1.78,-0.7497394946758309,-1.78,-0.744699668175969,-1.78,-0.7418347729606002,-1.78,-0.7426903787744004,-1.78,-0.743482652637694,-1.78,-0.7441169631833588
-1.77,-0.8023739652446344,-1.77,-0.7749847466347403,-1.77,-0.7628575209227825,-1.77,-0.7523533079808382,-1.77,-0.7463786230800971,-1.77,-0.7422886912879373,-1.77,-0.7372572178410255,-1.77,-0.7343956813889905,-1.77,-0.7352523300091809,-1.77,-0.7360445390018078,-1.77,-0.7366783941506276
-1.76,-0.7948199133358097,-1.76,-0.7674752735786826,-1.76,-0.7553708369012145,-1.76,-0.7448870899947581,-1.76,-0.738923995071962,-1.76,-0.7348417565055563,-1.76,-0.7298186831313592,-1.76,-0.7269605241529528,-1.76,-0.7278182100020436,-1.76,-0.7286103478511421,-1.76,-0.7292437424652045
-1.75,-0.7872688044851122,-1.75,-0.7599692231193999,-1.75,-0.7478877702743634,-1.75,-0.7374246395215395,-1.75,-0.7314732097357148,-1.75,-0.7273987104489695,-1.75,-0.7223840837975798,-1.75,-0.7195293207716275,-1.75,-0.7203880380494903,-1.75,-0.7211800983334069,-1.75,-0.7218130271755773
-1.74,-0.7797206616811124,-1.74,-0.7524666172155825,-1.74,-0.7404083424344868,-1.74,-0.7299659774088543,-1.74,-0.7240262875757013,-1.74,-0.7199595733608103,-1.74,-0.714953439718397,-1.74,-0.7121020908962039,-1.74,-0.7129618335816664,-1.74,-0.7137538097313454,-1.74,-0.7143862674663728
-1.73,-0.7721755079890366,-1.73,-0.7449674779227509,-1.73,-0.7329325748802507,-1.73,-0.7225111246195934,-1.73,-0.7165832492168875,-1.73,-0.7125243656083735,-1.73,-0.707526770902849,-1.73,-0.7046788543121011,-1.73,-0.7055396161644922,-1.73,-0.7063315014648291,-1.73,-0.7069634826604263
-1.72,-0.7646333665539992,-1.72,-0.7374718273960337,-1.72,-0.7254604892193514,-1.72,-0.7150601022343293,-1.72,-0.7091441154072436,-1.72,-0.7050931076859381,-1.72,-0.7001040974925423,-1.72,-0.6972596309411558,-1.72,-0.6981214055018208,-1.72,-0.6989131930929821,-1.72,-0.6995446922208817
-1.71,-0.7570942606042078,-1.71,-0.7299796878929731,-1.71,-0.7179921071711314,-1.71,-0.7076129314537976,-1.71,-0.7017089070201389,-1.71,-0.6976658202171081,-1.71,-0.6926854397639181,-1.71,-0.6898444408438438,-1.71,-0.6907072214376008,-1.71,-0.6914989043163136,-1.71,-0.692129915753308
-1.7,-0.7495582134541617,-1.7,-0.7224910817763064,-1.7,-0.7105274505692006,-1.7,-0.7001696336013762,-1.7,-0.6942776450567399,-1.7,-0.6902425239571532,-1.7,-0.6852708181305168,-1.7,-0.6824333042214972,-1.7,-0.6832970839580659,-1.7,-0.6840886549788784,-1.7,-0.6847191730078246
-1.69,-0.7420252485078358,-1.69,-0.7150060315167602,-1.69,-0.703066541364066,-1.69,-0.6927302301255851,-1.69,-0.6868503506484425,-1.69,-0.6828232397953781,-1.69,-0.6778602531452742,-1.69,-0.6750262414185659,-1.69,-0.6758910131939405,-1.69,-0.6766824650704459,-1.69,-0.6773124838812543
-1.68,-0.7344953892618454,-1.68,-0.7075245596958415,-1.68,-0.6956094016257672,-1.68,-0.6852947426025835,-1.68,-0.679427045059289,-1.68,-0.6754079887574952,-1.68,-0.6704537655028271,-1.68,-0.6676232729248675,-1.68,-0.6684890294226636,-1.68,-0.6692803547286932,-1.68,-0.6699098684192897
-1.67,-0.7269686593086,-1.67,-0.7000466890086204,-1.67,-0.6881560535465093,-1.67,-0.6778631927386942,-1.67,-0.6720077496884151,-1.67,-0.6679967920080191,-1.67,-0.6630513760418365,-1.67,-0.6602244193778886,-1.67,-0.6610911530706264,-1.67,-0.6618823442414208,-1.67,-0.6625113468186935
-1.66,-0.7194450823394545,-1.66,-0.692572442266534,-1.66,-0.6807065194433182,-1.66,-0.6704356023729192,-1.66,-0.6645924860725183,-1.66,-0.6605896708526772,-1.66,-0.6556531057473396,-1.66,-0.6528297015650778,-1.66,-0.6536974047154493,-1.66,-0.654488454048784,-1.66,-0.6551169394294961
-1.65,-0.7119246821478413,-1.65,-0.6851018424001715,-1.65,-0.67326082176069,-1.65,-0.6630119934794912,-1.65,-0.6571812758883147,-1.65,-0.653186646740836,-1.65,-0.6482589757531058,-1.65,-0.6454391404261827,-1.65,-0.6463078050882529,-1.65,-0.6470987047455473,-1.65,-0.6477266667572359
-1.64,-0.7044074826324039,-1.64,-0.6776349124620825,-1.64,-0.6658189830732566,-1.64,-0.655592388170419,-1.64,-0.6497741409550466,-1.64,-0.6457877412679406,-1.64,-0.6408690073440247,-1.64,-0.6380527570555971,-1.64,-0.638922375075981,-1.64,-0.6397131170833689,-1.64,-0.640340549465215
-1.63,-0.6968935078001122,-1.63,-0.6701716756295788,-1.63,-0.6583810260884656,-1.63,-0.6481768086980608,-1.63,-0.6423711032369751,-1.63,-0.6383929761779836,-1.63,-0.6334832219585127,-1.63,-0.6306705727047265,-1.63,-0.6315411357237218,-1.63,-0.6323317119730917,-1.63,-0.63295860837678
-1.62,-0.6893827817693894,-1.62,-0.662712155207543,-1.62,-0.6509469736492574,-1.62,-0.6407652774576981,-1.62,-0.6349721848459136,-1.62,-0.6310023733659813,-1.62,-0.6261016411909377,-1.62,-0.6232926087843916,-1.62,-0.6241641082370633,-1.62,-0.6249545104870765,-1.62,-0.6255808644776143
-1.61,-0.6818753287732157,-1.61,-0.6552563746312517,-1.61,-0.6435168487367695,-1.61,-0.6333578169901426,-1.61,-0.6275774080437623,-1.61,-0.6236159548804799,-1.61,-0.6187242867940699,-1.61,-0.6159188868672435,-1.61,-0.6167913139844791,-1.61,-0.617581533861549,-1.61,-0.6182073389180807
-1.6,-0.6743711731622503,-1.6,-0.6478043574691975,-1.6,-0.6360906744730358,-1.6,-0.6259544499843472,-1.6,-0.6201867952450736,-1.6,-0.6162337429260736,-1.6,-0.6113511806815499,-1.6,-0.6085494286902094,-1.6,-0.609422774499722,-1.6,-0.6102128034989703,-1.6,-0.6108380530155603
-1.59,-0.6668703394079274,-1.59,-0.6403561274259233,-1.59,-0.6286684741237255,-1.59,-0.6185551992800397,-1.59,-0.6128003690196338,-1.59,-0.6088557598659519,-1.59,-0.603982344930393,-1.59,-0.6011842561569565,-1.59,-0.6020585114842627,-1.59,-0.6028483409704424,-1.59,-0.6034730282568436
-1.58,-0.6593728521055748,-1.58,-0.6329117083448691,-1.58,-0.6212502711008624,-1.58,-0.6111600878703667,-1.58,-0.605418152095058,-1.58,-0.6014820282244645,-1.58,-0.5966178017835035,-1.58,-0.5938233913403972,-1.58,-0.5946985468097417,-1.58,-0.5954881680181336,-1.58,-0.5961122863005253
-1.57,-0.6518787359775167,-1.57,-0.6254711242112211,-1.57,-0.6138360889655864,-1.57,-0.6037691389045711,-1.57,-0.598040167359419,-1.57,-0.5941125706897084,-1.57,-0.5892575736522244,-1.57,-0.5864668564852048,-1.57,-0.5873429025204527,-1.57,-0.5881323065577352,-1.57,-0.5887558489794474
-1.56,-0.6443880158761888,-1.56,-0.6180343991547818,-1.56,-0.6064259514309159,-1.56,-0.5963823756906711,-1.56,-0.5906664378638896,-1.56,-0.5867474101161421,-1.56,-0.5819016831189098,-1.56,-0.5791146740103676,-1.56,-0.5799916008358544,-1.56,-0.5807807786809375,-1.56,-0.5814037383031538
-1.55,-0.6369007167872427,-1.55,-0.6106015574528428,-1.55,-0.599019882364538,-1.55,-0.5889998216981804,-1.55,-0.5832969868254037,-1.55,-0.5793865695272237,-1.55,-0.5745501529395206,-1.55,-0.5717668665117596,-1.55,-0.5726446641531096,-1.55,-0.5734336066579475,-1.55,-0.5740559764603838
-1.54,-0.6294168638326767,-1.54,-0.6031726235330795,-1.54,-0.5916179057915982,-1.54,-0.5816215005608234,-1.54,-0.575931837629356,-1.54,-0.5720300721180687,-1.54,-0.5672030060462545,-1.54,-0.5644234567647676,-1.54,-0.5653021150496585,-1.54,-0.5660908129400336,-1.54,-0.5667125858215968
-1.53,-0.6219364822739402,-1.53,-0.5957476219764514,-1.53,-0.5842200458975262,-1.53,-0.5742474360792996,-1.53,-0.5685710138323071,-1.53,-0.5646779412581401,-1.53,-0.5598602655502037,-1.53,-0.5570844677269049,-1.53,-0.5579639762858125,-1.53,-0.5587524201620865,-1.53,-0.5593735889415182
-1.52,-0.6144595975150713,-1.52,-0.588326577520122,-1.52,-0.5768263270308753,-1.52,-0.5668776522240475,-1.52,-0.561214539164728,-1.52,-0.5573302004939641,-1.52,-0.5525219547440309,-1.52,-0.5497499225405004,-1.52,-0.5506302708073892,-1.52,-0.5514184511452321,-1.52,-0.5520390085617227
-1.51,-0.6069862351058274,-1.51,-0.5809095150603909,-1.51,-0.5694367737061683,-1.51,-0.5595121731380499,-1.51,-0.5538624375337622,-1.51,-0.5499868735518735,-1.51,-0.5451880971046916,-1.51,-0.5424198445353898,-1.51,-0.5433010217483777,-1.51,-0.5440889288994623,-1.51,-0.5447088676132553
-1.5,-0.5995164207448235,-1.5,-0.5734964596556459,-1.5,-0.5620514106067869,-1.5,-0.5521510231396448,-1.5,-0.5465147330260182,-1.5,-0.542647984340769,-1.5,-0.537858716296178,-1.5,-0.5350942572316501,-1.5,-0.5359762524336219,-1.5,-0.5367638766263056,-1.5,-0.5373831892192673
-1.49,-0.592050180282683,-1.49,-0.566087436529331,-1.49,-0.5546702625878625,-1.49,-0.5447942267253869,-1.49,-0.5391714499103857,-1.49,-0.5353135569549283,-1.49,-0.5305338361722901,-1.49,-0.5277731843423634,-1.49,-0.5286559863815664,-1.49,-0.5294433177215221,-1.49,-0.5300619966977123
-1.48,-0.5845875397251971,-1.48,-0.5586824710729243,-1.48,-0.5472933546791985,-1.48,-0.5374418085729014,-1.48,-0.5318326126408864,-1.48,-0.5279836156768327,-1.48,-0.5232134807794472,-1.48,-0.5204566497764257,-1.48,-0.5213402473070023,-1.48,-0.5221272757778501,-1.48,-0.5227453135640521
-1.47,-0.5771285252364908,-1.47,-0.5512815888489498,-1.47,-0.5399207120882112,-1.47,-0.5300937935437987,-1.47,-0.5244982458595447,-1.47,-0.5206581849800193,-1.47,-0.5158976743595327,-1.47,-0.5131446776413746,-1.47,-0.5140290591238774,-1.47,-0.5148157745877632,-1.47,-0.515433163534009
-1.46,-0.5696731631422087,-1.46,-0.5438848155939958,-1.46,-0.5325523602028996,-1.46,-0.5227502066865878,-1.46,-0.5171683743992929,-1.46,-0.5133372895319794,-1.46,-0.5085864413527638,-1.46,-0.5058372922462587,-1.46,-0.5067224459481244,-1.46,-0.5075088381462901,-1.46,-0.5081255705263584
-1.45,-0.562221479932695,-1.45,-0.5364921772217575,-1.45,-0.5251883245948326,-1.45,-0.5154110732396369,-1.45,-0.509843023286909,-1.45,-0.5060209541970823,-1.45,-0.5012798064006115,-1.45,-0.4985345181045554,-1.45,-0.4994204321005331,-1.45,-0.500206490653853,-1.45,-0.500822558665751
-1.44,-0.554773502266216,-1.44,-0.5291036998261033,-1.44,-0.5178286310221647,-1.44,-0.5080764186341548,-1.44,-0.50252221774598,-1.44,-0.4987092040395232,-1.44,-0.4939777943487327,-1.44,-0.4912363799371023,-1.44,-0.4921230421096571,-1.44,-0.492908756519148,-1.44,-0.4935241522855737
-1.43,-0.5473292569721658,-1.43,-0.5217194096841618,-1.43,-0.510473305432682,-1.43,-0.5007462684971998,-1.43,-0.4952059831999029,-1.43,-0.4914020643263217,-1.43,-0.4866804302499673,-1.43,-0.483942902675091,-1.43,-0.4848303007147594,-1.43,-0.4856156603620695,-1.43,-0.4862303759308513
-1.42,-0.5398887710543058,-1.42,-0.5143393332594255,-1.42,-0.5031223739668649,-1.42,-0.4934206486547261,-1.42,-0.4878943452749143,-1.42,-0.4840995605303388,-1.42,-0.4793877393673479,-1.42,-0.4766541114630855,-1.42,-0.4775422328688039,-1.42,-0.4783272270166642,-1.42,-0.4789412543611881
-1.41,-0.5324520716940104,-1.41,-0.5069634972048924,-1.41,-0.4957758629609874,-1.41,-0.4860995851346575,-1.41,-0.4805873298031564,-1.41,-0.4768017183333458,-1.41,-0.4720997471771619,-1.41,-0.4693700316620849,-1.41,-0.4702588637414748,-1.41,-0.4710434815341371,-1.41,-0.4716568125537499
-1.4,-0.5250191862535437,-1.4,-0.4995919283662136,-1.4,-0.4884337989502413,-1.4,-0.4787831041699933,-1.4,-0.4732849628257778,-1.4,-0.4695085636291113,-1.4,-0.4648164793720531,-1.4,-0.4620906888526273,-1.4,-0.4629802187222481,-1.4,-0.4637644491858899,-1.4,-0.4643770757062883
-1.39,-0.5175901422793345,-1.39,-0.4922246537848853,-1.39,-0.48109620867189,-1.39,-0.4714712322019467,-1.39,-0.4659872705960641,-1.39,-0.4622201225265451,-1.39,-0.4575379618641512,-1.39,-0.4548161088379388,-1.39,-0.4557063234234984,-1.39,-0.4564901554666085,-1.39,-0.4571020692402005
-1.38,-0.5101649675052811,-1.38,-0.4848617007014449,-1.38,-0.4737631190684511,-1.38,-0.4641639958831163,-1.38,-0.4586942795826177,-1.38,-0.4549364213528614,-1.38,-0.450264220788256,-1.38,-0.4475463176471175,-1.38,-0.4484372036836572,-1.38,-0.4492206260973806,-1.38,-0.4498318188036396
-1.37,-0.5027436898560733,-1.37,-0.4775030965587237,-1.37,-0.4664345572909123,-1.37,-0.4568614220807029,-1.37,-0.4514060164725587,-1.37,-0.4476574866567966,-1.37,-0.4429952825050557,-1.37,-0.4402813415383686,-1.37,-0.4411728855703997,-1.37,-0.441955887028882,-1.37,-0.4425663502746729
-1.36,-0.4953263374505403,-1.36,-0.4701488690050937,-1.36,-0.4591105507019804,-1.36,-0.449563537879745,-1.36,-0.4441225081747764,-1.36,-0.4403833452118585,-1.36,-0.4357311736043933,-1.36,-0.4330212070022825,-1.36,-0.4339133953838973,-1.36,-0.4346959644445785,-1.36,-0.4353056897644729
-1.35,-0.4879129386050042,-1.35,-0.4627990458977687,-1.35,-0.4517911268793549,-1.35,-0.4422703705864023,-1.35,-0.4368437818232146,-1.35,-0.4331140240196188,-1.35,-0.4284719209085706,-1.35,-0.4257659407651577,-1.35,-0.426658759660099,-1.35,-0.4274408847639952,-1.35,-0.4280498636205647
-1.34,-0.4805035218366752,-1.34,-0.4554536553061281,-1.34,-0.4444763136190482,-1.34,-0.4349819477312761,-1.34,-0.4295698647801984,-1.34,-0.4258495503130517,-1.34,-0.4212175514757063,-1.34,-0.4185155697923756,-1.34,-0.41940900517407,-1.34,-0.4201906746460247,-1.34,-0.420798898430113
-1.33,-0.4730981158670557,-1.33,-0.4481127255150611,-1.33,-0.4371661389387273,-1.33,-0.4276982970727591,-1.33,-0.4223007846398035,-1.33,-0.4185899515599051,-1.33,-0.4139680926031252,-1.33,-0.4112701212918113,-1.33,-0.4121641589433681,-1.33,-0.4129453609922891,-1.33,-0.4135528210232702
-1.32,-0.4656967496253713,-1.32,-0.4407762850283592,-1.32,-0.4298606310811017,-1.32,-0.4204194466004414,-1.32,-0.4150365692312586,-1.32,-0.4113352554661272,-1.32,-0.4067235718308158,-1.32,-0.4040296227173126,-1.32,-0.4049242482314867,-1.32,-0.4057049709505385,-1.32,-0.4063116584765576
-1.31,-0.458299452252028,-1.31,-0.4334443625721267,-1.31,-0.42255981851734,-1.31,-0.4131454245385404,-1.31,-0.407777246622406,-1.31,-0.4040854899793354,-1.31,-0.3994840169449142,-1.31,-0.3967941017722066,-1.31,-0.3976893005513266,-1.31,-0.3984695319181173,-1.31,-0.3990754381163092
-1.3,-0.4509062531021,-1.3,-0.4261169870982281,-1.3,-0.4152637299505277,-1.3,-0.4058762593493777,-1.3,-0.4005228451231957,-1.3,-0.3968406832923221,-1.3,-0.3922494559812522,-1.3,-0.3895635864128841,-1.3,-0.3904593436687406,-1.3,-0.3912390715454668,-1.3,-0.3918441875221569
-1.29,-0.443517181748832,-1.29,-0.4187941877877808,-1.29,-0.4079723943191588,-1.29,-0.3986119797369085,-1.29,-0.3932733932892231,-1.29,-0.3896008638466213,-1.29,-0.385019917228951,-1.29,-0.3823381048524067,-1.29,-0.3832344056061062,-1.29,-0.3840136177396907,-1.29,-0.3846179345305852
-1.28,-0.43613226798718,-1.28,-0.4114759940546628,-1.28,-0.4006858408006781,-1.28,-0.3913526146502689,-1.28,-0.3860289199253211,-1.28,-0.3823660603361158,-1.28,-0.3777954292340595,-1.28,-0.375117685564192,-1.28,-0.3760145146459836,-1.28,-0.3767931986681688,-1.28,-0.377396707238511
-1.27,-0.4287515418373732,-1.27,-0.4041624355490677,-1.27,-0.3934040988150457,-1.27,-0.3840981932873992,-1.27,-0.3787894540891918,-1.27,-0.3751363017106916,-1.27,-0.3705760208032605,-1.27,-0.3679023572857464,-1.27,-0.3687996993347943,-1.27,-0.3695778427622258,-1.27,-0.3701805340069526
-1.26,-0.4213750335485067,-1.26,-0.3968535421611057,-1.26,-0.3861271980283562,-1.26,-0.376848745098689,-1.26,-0.3715550250950903,-1.26,-0.3679116171799482,-1.26,-0.3633617210076143,-1.26,-0.3606921490224448,-1.26,-0.3615899884865819,-1.26,-0.3623675787208582,-1.26,-0.3629694434647274
-1.25,-0.4140027736021697,-1.25,-0.3895493440244184,-1.25,-0.3788551683564997,-1.25,-0.3696042997906786,-1.25,-0.3643256625175564,-1.25,-0.3606920362169597,-1.25,-0.3561525591863728,-1.25,-0.3534870900513811,-1.25,-0.3543854111868188,-1.25,-0.3551624355145202,-1.25,-0.3557634645122249
-1.24,-0.4066347927160965,-1.24,-0.3822498715198583,-1.24,-0.371588039968855,-1.24,-0.3623648873298049,-1.24,-0.3571013961951944,-1.24,-0.3534775885620813,-1.24,-0.3489485649508264,-1.24,-0.34628720992527,-1.24,-0.3471859967962713,-1.24,-0.3479624423889603,-1.24,-0.3485626263252181
-1.23,-0.3992711218478516,-1.23,-0.3749551552791799,-1.23,-0.3643258432920362,-1.23,-0.3551305379461935,-1.23,-0.349882256234513,-1.23,-0.3462683042268214,-1.23,-0.3417497681882423,-1.23,-0.3390925384764106,-1.23,-0.3399917749549282,-1.23,-0.340767628869131,-1.23,-0.3413669583587632
-1.22,-0.3919117921985524,-1.22,-0.3676652261888056,-1.22,-0.3570686090136858,-1.22,-0.3479012821375137,-1.22,-0.3426682730138014,-1.22,-0.3390642134977599,-1.22,-0.3345561990658303,-1.22,-0.3319031058207071,-1.22,-0.3328027755859876,-1.22,-0.3335780247631414,-1.22,-0.3341764903511317
-1.21,-0.3845568352166168,-1.21,-0.3603801153935982,-1.21,-0.3498163680863017,-1.21,-0.3406771506728631,-1.21,-0.3354594771870792,-1.21,-0.3318653469405226,-1.21,-0.3273678880347772,-1.21,-0.324718942361759,-1.21,-0.3256190288999081,-1.21,-0.3263936601662915,-1.21,-0.3269912523278236
-1.2,-0.3772062826015571,-1.2,-0.3530998543007022,-1.2,-0.3425691517311306,-1.2,-0.3334581745967173,-1.2,-0.3282558996880845,-1.2,-0.324671735403819,-1.2,-0.3201848658343622,-1.2,-0.3175400787950144,-1.2,-0.3184405653985222,-1.2,-0.3192145654651568,-1.2,-0.3198112746056375
-1.19,-0.3698601663077936,-1.19,-0.3458244745834127,-1.19,-0.3353269914420853,-1.19,-0.3262443852329332,-1.19,-0.3210575717343281,-1.19,-0.3174834100235309,-1.19,-0.3130071634961011,-1.19,-0.3103665461119821,-1.19,-0.3112674158792167,-1.19,-0.3120407713417406,-1.19,-0.3126365877968023
-1.179999999999999,-0.3625185185485217,-1.179999999999999,-0.3385540081850968,-1.179999999999999,-0.3280899189897347,-1.179999999999999,-0.3190358141888006,-1.179999999999999,-0.3138645248311964,-1.179999999999999,-0.3103004022268727,-1.179999999999999,-0.3058348123479775,-1.179999999999999,-0.303198375604511,-1.179999999999999,-0.3040996114391803,-1.179999999999999,-0.3048723087776987,-1.179999999999999,-0.3054672228131848
-1.169999999999999,-0.3551813717995981,-1.169999999999999,-0.3312884873231559,-1.169999999999999,-0.3208579664253246,-1.169999999999999,-0.3118324933591498,-1.169999999999999,-0.3066767907761238,-1.169999999999999,-0.3031227437365986,-1.169999999999999,-0.2986678440187389,-1.169999999999999,-0.2960355988691551,-1.169999999999999,-0.29693718347971,-1.169999999999999,-0.2977092090586244,-1.169999999999999,-0.2983032108705613
-1.159999999999999,-0.3478487588034809,-1.159999999999999,-0.3240279444930375,-1.159999999999999,-0.3136311660848677,-1.159999999999999,-0.3046344549305234,-1.159999999999999,-0.2994944016628186,-1.159999999999999,-0.2959504665752792,-1.159999999999999,-0.2915062904422447,-1.159999999999999,-0.2888782478115753,-1.159999999999999,-0.2897801637106041,-1.159999999999999,-0.2905515037784116,-1.159999999999999,-0.2911445834929457
-1.149999999999999,-0.3405207125732001,-1.149999999999999,-0.3167724124722935,-1.149999999999999,-0.3064095505932705,-1.149999999999999,-0.2974417313853867,-1.149999999999999,-0.2923173898855449,-1.149999999999999,-0.2887836030696452,-1.149999999999999,-0.2843501838619004,-1.149999999999999,-0.2817263546510507,-1.149999999999999,-0.2826285841546137,-1.149999999999999,-0.2833992248436765,-1.149999999999999,-0.2839913725170156
