;Version, 1, 0
;/VP (row=1),;/VP (row=2),;/VP (row=3),;/VP (row=4),;/VP (row=5)
;X, Y,;X, Y,;X, Y,;X, Y,;X, Y
;Re, Re,;Re, Re,;Re, Re,;Re, Re,;Re, Re
;VG, V,;VG, V,;VG, V,;VG, V,;VG, V
;xunit, V,;xunit, V,;xunit, V,;xunit, V,;xunit, V
-1.8,-0.7807477603870014,-1.8,-0.7958644028877661,-1.8,-0.827887643871993,-1.8,-0.8613265386042653,-1.8,-0.8854385672853549
-1.79,-0.7732641144114196,-1.79,-0.7883791753406089,-1.79,-0.8204010644886823,-1.79,-0.8538430018720002,-1.79,-0.8779590136467013
-1.78,-0.7657840758754474,-1.78,-0.7808975119485739,-1.78,-0.8129183170268988,-1.78,-0.8463627678405465,-1.78,-0.870483039403982
-1.77,-0.7583081044887229,-1.77,-0.7734198454217083,-1.77,-0.8054394201522688,-1.77,-0.8388862416256621,-1.77,-0.863010677110389
-1.76,-0.7508362193254267,-1.76,-0.7659461944072888,-1.76,-0.7979643916054123,-1.76,-0.8314134400584383,-1.76,-0.8555419429803672
-1.75,-0.7433684396175493,-1.75,-0.7584765777045688,-1.75,-0.7904932492663114,-1.75,-0.8239443800964986,-1.75,-0.8480768533458892
-1.74,-0.7359047847568251,-1.74,-0.751011014266638,-1.74,-0.7830260111560264,-1.74,-0.8164790788255601,-1.74,-0.840615424658003
-1.73,-0.7284452742967327,-1.73,-0.7435495232023255,-1.73,-0.775562695438426,-1.73,-0.8090175534610357,-1.73,-0.8331576734883368
-1.72,-0.7209899279544992,-1.72,-0.7360921237781201,-1.72,-0.7681033204219404,-1.72,-0.8015598213496439,-1.72,-0.825703616530659
-1.71,-0.7135387656131401,-1.71,-0.728638835420119,-1.71,-0.7606479045613246,-1.71,-0.7941058999710264,-1.71,-0.8182532706024018
-1.7,-0.7060918073235251,-1.7,-0.721189677715996,-1.7,-0.7531964664594504,-1.7,-0.7866558069393831,-1.7,-0.8108066526462283
-1.69,-0.6986490733064671,-1.69,-0.7137446704169956,-1.69,-0.7457490248691059,-1.69,-0.7792095600051079,-1.69,-0.8033637797315824
-1.68,-0.6912105839548434,-1.68,-0.7063038334399601,-1.68,-0.7383055986948261,-1.68,-0.7717671770564654,-1.68,-0.795924669056263
-1.67,-0.6837763598357476,-1.67,-0.6988671868693698,-1.67,-0.7308662069947418,-1.67,-0.7643286761212559,-1.67,-0.7884893379480011
-1.66,-0.6763464216926549,-1.66,-0.6914347509594106,-1.66,-0.7234308689824447,-1.66,-0.7568940753685064,-1.66,-0.7810578038660591
-1.65,-0.668920790447645,-1.65,-0.6840065461360914,-1.65,-0.7159996040288757,-1.65,-0.7494633931101838,-1.65,-0.7736300844028249
-1.64,-0.6614994872036283,-1.64,-0.676582592999363,-1.64,-0.7085724316642539,-1.64,-0.7420366478029243,-1.64,-0.7662061972854332
-1.63,-0.6540825332466175,-1.63,-0.669162912325272,-1.63,-0.7011493715799963,-1.63,-0.734613858049771,-1.63,-0.7587861603774014
-1.62,-0.6466699500480363,-1.62,-0.6617475250681586,-1.62,-0.6937304436306875,-1.62,-0.7271950426019339,-1.62,-0.7513699916802676
-1.61,-0.6392617592670402,-1.61,-0.6543364523628651,-1.61,-0.6863156678360743,-1.61,-0.7197802203605804,-1.61,-0.7439577093352553
-1.6,-0.6318579827528947,-1.6,-0.6469297155269944,-1.6,-0.6789050643830604,-1.6,-0.7123694103786329,-1.6,-0.736549331624951
-1.59,-0.6244586425473703,-1.59,-0.6395273360631724,-1.59,-0.6714986536277616,-1.59,-0.7049626318625922,-1.59,-0.7291448769749926
-1.58,-0.6170637608871766,-1.58,-0.6321293356613787,-1.58,-0.664096456097558,-1.58,-0.6975599041743761,-1.58,-0.7217443639557868
-1.57,-0.6096733602064429,-1.57,-0.6247357362012758,-1.57,-0.6566984924931897,-1.57,-0.6901612468331969,-1.57,-0.7143478112842285
-1.56,-0.6022874631392122,-1.56,-0.617346559754599,-1.56,-0.6493047836908892,-1.56,-0.6827666795174393,-1.56,-0.7069552378254608
-1.55,-0.594906092522001,-1.55,-0.6099618285875612,-1.55,-0.641915350744507,-1.55,-0.675376222066572,-1.55,-0.6995666625946289
-1.54,-0.5875292713963615,-1.54,-0.6025815651632989,-1.54,-0.6345302148877079,-1.54,-0.6679898944830953,-1.54,-0.692182104758676
-1.53,-0.5801570230115282,-1.53,-0.5952057921443623,-1.53,-0.6271493975361722,-1.53,-0.6606077169344785,-1.53,-0.6848015836381398
-1.52,-0.5727893708270467,-1.52,-0.5878345323952271,-1.52,-0.6197729202898355,-1.52,-0.6532297097551659,-1.52,-0.6774251187089892
-1.51,-0.5654263385155057,-1.51,-0.5804678089848544,-1.51,-0.6124008049351577,-1.51,-0.6458558934485724,-1.51,-0.6700527296044732
-1.5,-0.5580679499652533,-1.5,-0.5731056451892856,-1.5,-0.6050330734474205,-1.5,-0.6384862886891274,-1.5,-0.6626844361169846
-1.49,-0.5507142292831864,-1.49,-0.5657480644942714,-1.49,-0.5976697479930759,-1.49,-0.6311209163243335,-1.49,-0.6553202581999584
-1.48,-0.5433652007975851,-1.48,-0.5583950905979455,-1.48,-0.5903108509320897,-1.48,-0.6237597973768596,-1.48,-0.6479602159698001
-1.47,-0.5360208890609648,-1.47,-0.5510467474135412,-1.47,-0.5829564048203694,-1.47,-0.6164029530466546,-1.47,-0.6406043297078069
-1.46,-0.5286813188530058,-1.46,-0.5437030590721451,-1.46,-0.5756064324121817,-1.46,-0.6090504047131002,-1.46,-0.6332526198621558
-1.45,-0.5213465151834958,-1.45,-0.5363640499254752,-1.45,-0.568260956662629,-1.45,-0.6017021739371807,-1.45,-0.6259051070498779
-1.44,-0.5140165032953474,-1.44,-0.5290297445487488,-1.44,-0.5609200007301606,-1.44,-0.5943582824636986,-1.44,-0.6185618120588913
-1.43,-0.5066913086676333,-1.43,-0.5217001677435429,-1.43,-0.5535835879791134,-1.43,-0.5870187522234941,-1.43,-0.6112227558500344
-1.42,-0.4993709570187032,-1.42,-0.5143753445407206,-1.42,-0.5462517419822974,-1.42,-0.5796836053357386,-1.42,-0.6038879595591409
-1.41,-0.4920554743093161,-1.41,-0.5070553002034222,-1.41,-0.5389244865236129,-1.41,-0.5723528641102091,-1.41,-0.5965574444991408
-1.4,-0.4847448867458466,-1.4,-0.499740060230055,-1.4,-0.5316018456007084,-1.4,-0.5650265510496356,-1.4,-0.5892312321621848
-1.39,-0.4774392207835274,-1.39,-0.492429650357383,-1.39,-0.5242838434276875,-1.39,-0.5577046888520629,-1.39,-0.5819093442218041
-1.38,-0.4701385031297594,-1.38,-0.4851240965636238,-1.38,-0.5169705044378473,-1.38,-0.5503873004132483,-1.38,-0.5745918025350945
-1.37,-0.462842760747448,-1.37,-0.4778234250716257,-1.37,-0.5096618532864496,-1.37,-0.5430744088291021,-1.37,-0.5672786291449271
-1.36,-0.4555520208584288,-1.36,-0.4705276623520657,-1.36,-0.5023579148535604,-1.36,-0.5357660373981468,-1.36,-0.5599698462822073
-1.35,-0.4482663109469183,-1.35,-0.4632368351267206,-1.35,-0.4950587142469136,-1.35,-0.5284622096240299,-1.35,-0.5526654763681478
-1.34,-0.4409856587630344,-1.34,-0.4559509703717856,-1.34,-0.4877642768048154,-1.34,-0.5211629492180656,-1.34,-0.5453655420165742
-1.33,-0.4337100923263742,-1.33,-0.4486700953212375,-1.33,-0.4804746280991087,-1.33,-0.5138682801018173,-1.33,-0.5380700660362745
-1.32,-0.4264396399296519,-1.32,-0.4413942374702619,-1.32,-0.4731897939381731,-1.32,-0.5065782264097066,-1.32,-0.5307790714333777
-1.31,-0.4191743301423834,-1.31,-0.4341234245787312,-1.31,-0.4659098003699764,-1.31,-0.4992928124916803,-1.31,-0.5234925814137628
-1.3,-0.4119141918146472,-1.3,-0.4268576846747401,-1.3,-0.4586346736851682,-1.3,-0.4920120629158997,-1.3,-0.5162106193855064
-1.29,-0.4046592540809001,-1.29,-0.4195970460581941,-1.29,-0.4513644404202316,-1.29,-0.4847360024714844,-1.29,-0.5089332089613593
-1.28,-0.3974095463638615,-1.28,-0.4123415373044699,-1.28,-0.4440991273606762,-1.28,-0.4774646561712898,-1.28,-0.501660373961281
-1.27,-0.3901650983784564,-1.27,-0.4050911872681214,-1.27,-0.4368387615442816,-1.27,-0.4701980492547298,-1.27,-0.4943921384149773
-1.26,-0.3829259401358216,-1.26,-0.3978460250866514,-1.26,-0.4295833702644011,-1.26,-0.4629362071906337,-1.26,-0.4871285265645108
-1.25,-0.3756921019473911,-1.25,-0.3906060801843567,-1.25,-0.4223329810733153,-1.25,-0.455679155680163,-1.25,-0.4798695628669258
-1.24,-0.3684636144290459,-1.24,-0.3833713822762132,-1.24,-0.4150876217856233,-1.24,-0.4484269206597664,-1.24,-0.4726152719969203
-1.23,-0.3612405085053211,-1.23,-0.3761419613718507,-1.23,-0.4078473204817202,-1.23,-0.441179528304169,-1.23,-0.4653656788495608
-1.22,-0.3540228154137093,-1.22,-0.368917847779584,-1.22,-0.4006121055113036,-1.22,-0.4339370050294251,-1.22,-0.4581208085430484
-1.21,-0.3468105667090119,-1.21,-0.3616990721105032,-1.21,-0.3933820054969451,-1.21,-0.4266993774960144,-1.21,-0.4508806864214995
-1.2,-0.3396037942677833,-1.2,-0.3544856652826496,-1.2,-0.3861570493377302,-1.2,-0.4194666726119754,-1.2,-0.4436453380577964
-1.19,-0.3324025302928444,-1.19,-0.3472776585252548,-1.19,-0.3789372662129363,-1.19,-0.4122389175361021,-1.19,-0.4364147892564717
-1.179999999999999,-0.3252068073178719,-1.179999999999999,-0.3400750833830503,-1.179999999999999,-0.3717226855858041,-1.179999999999999,-0.4050161396811914,-1.179999999999999,-0.4291890660566404
-1.169999999999999,-0.3180166582120779,-1.169999999999999,-0.332877971720643,-1.169999999999999,-0.3645133372073308,-1.169999999999999,-0.3977983667173226,-1.169999999999999,-0.4219681947349653
-1.159999999999999,-0.3108321161849446,-1.159999999999999,-0.325686355726985,-1.159999999999999,-0.3573092511201584,-1.159999999999999,-0.3905856265752164,-1.159999999999999,-0.4147522018087054
-1.149999999999999,-0.3036532147910869,-1.149999999999999,-0.318500267919914,-1.149999999999999,-0.3501104576625134,-1.149999999999999,-0.3833779474496262,-1.149999999999999,-0.4075411140387564
-1.139999999999999,-0.2964799879351454,-1.139999999999999,-0.3113197411507542,-1.139999999999999,-0.3429169874722158,-1.139999999999999,-0.3761753578028011,-1.139999999999999,-0.4003349584328081
-1.129999999999999,-0.2893124698768177,-1.129999999999999,-0.3041448086090225,-1.129999999999999,-0.335728871490752,-1.129999999999999,-0.3689778863679901,-1.129999999999999,-0.3931337622484889
-1.119999999999999,-0.2821506952359361,-1.119999999999999,-0.2969755038271989,-1.119999999999999,-0.3285461409674137,-1.119999999999999,-0.3617855621530126,-1.119999999999999,-0.3859375529966074
-1.109999999999999,-0.2749946989976633,-1.109999999999999,-0.2898118606855953,-1.109999999999999,-0.3213688274635188,-1.109999999999999,-0.3545984144438777,-1.109999999999999,-0.3787463584444258
-1.099999999999999,-0.2678445165177744,-1.099999999999999,-0.2826539134172885,-1.099999999999999,-0.3141969628566953,-1.099999999999999,-0.3474164728084816,-1.099999999999999,-0.3715602066190036
-1.089999999999999,-0.2607001835280134,-1.089999999999999,-0.2755016966131588,-1.089999999999999,-0.3070305793452298,-1.089999999999999,-0.3402397671003419,-1.089999999999999,-0.3643791258105662
-1.079999999999999,-0.2535617361415849,-1.079999999999999,-0.2683552452270232,-1.079999999999999,-0.2998697094525167,-1.079999999999999,-0.3330683274624066,-1.079999999999999,-0.3572031445759859
-1.069999999999999,-0.2464292108587042,-1.069999999999999,-0.2612145945808254,-1.069999999999999,-0.2927143860315434,-1.069999999999999,-0.32590218433094,-1.069999999999999,-0.3500322917422564
-1.059999999999999,-0.2393026445722728,-1.059999999999999,-0.2540797803699555,-1.059999999999999,-0.2855646422695015,-1.059999999999999,-0.318741368439432,-1.059999999999999,-0.3428665964100958
-1.049999999999999,-0.2321820745736514,-1.049999999999999,-0.2469508386686542,-1.049999999999999,-0.2784205116924351,-1.049999999999999,-0.3115859108226249,-1.049999999999999,-0.3357060879575493
-1.039999999999999,-0.2250675385585355,-1.039999999999999,-0.2398278059354946,-1.039999999999999,-0.2712820281699855,-1.039999999999999,-0.3044358428205634,-1.039999999999999,-0.3285507960437122
-1.029999999999999,-0.2179590746329353,-1.029999999999999,-0.2327107190189964,-1.029999999999999,-0.2641492259202399,-1.029999999999999,-0.2972911960827466,-1.029999999999999,-0.3214007506124728
-1.019999999999999,-0.2108567213192744,-1.019999999999999,-0.2255996151633077,-1.019999999999999,-0.257022139514619,-1.019999999999999,-0.2901520025723272,-1.019999999999999,-0.3142559818963764
-1.009999999999999,-0.2037605175625944,-1.009999999999999,-0.2184945320140204,-1.009999999999999,-0.2499008038828939,-1.009999999999999,-0.2830182945703951,-1.009999999999999,-0.3071165204205082
-0.9999999999999993,-0.1966705027368802,-0.9999999999999993,-0.2113955076240657,-0.9999999999999993,-0.2427852543182602,-0.9999999999999993,-0.2758901046803354,-0.9999999999999993,-0.2999823970064835
-0.9899999999999993,-0.1895867166514898,-0.9899999999999993,-0.2043025804597369,-0.9899999999999993,-0.235675526482536,-0.9899999999999993,-0.2687674658322465,-0.9899999999999993,-0.2928536427765164
-0.9799999999999993,-0.1825091995577249,-0.9799999999999993,-0.1972157894068093,-0.9799999999999993,-0.2285716564114109,-0.9799999999999993,-0.2616504112874612,-0.9799999999999993,-0.2857302891575473
-0.9699999999999993,-0.1754379921555077,-0.9699999999999993,-0.1901351737767853,-0.9699999999999993,-0.2214736805198141,-0.9699999999999993,-0.2545389746431134,-0.9699999999999993,-0.2786123678854822
-0.9599999999999993,-0.1683731356001793,-0.9599999999999993,-0.1830607733132425,-0.9599999999999993,-0.2143816356073848,-0.9599999999999993,-0.2474331898368284,-0.9599999999999993,-0.2714999110094871
-0.9499999999999993,-0.1613146715094515,-0.9499999999999993,-0.1759926281983068,-0.9499999999999993,-0.2072955588640104,-0.9499999999999993,-0.2403330911514544,-0.9499999999999993,-0.2643929508964127
-0.9399999999999993,-0.1542626419704662,-0.9399999999999993,-0.1689307790592584,-0.9399999999999993,-0.2002154878755011,-0.9399999999999993,-0.2332387132198988,-0.9399999999999993,-0.2572915202352721
-0.9299999999999993,-0.1472170895469978,-0.9299999999999993,-0.1618752669752264,-0.9299999999999993,-0.1931414606293407,-0.9299999999999993,-0.2261500910300548,-0.9299999999999993,-0.2501956520418639
-0.9199999999999993,-0.1401780572867934,-0.9199999999999993,-0.1548261334840527,-0.9199999999999993,-0.1860735155205454,-0.9199999999999993,-0.2190672599298083,-0.9199999999999993,-0.2431053796634575
-0.9099999999999993,-0.1331455887290551,-0.9099999999999993,-0.1477834205892436,-0.9099999999999993,-0.17901169135765,-0.9099999999999993,-0.2119902556321438,-0.9099999999999993,-0.2360207367836214
-0.8999999999999992,-0.1261197279120647,-0.8999999999999992,-0.1407471707670997,-0.8999999999999992,-0.1719560273687765,-0.8999999999999992,-0.2049191142203355,-0.8999999999999992,-0.2289417574271582
-0.8899999999999992,-0.119100519380955,-0.8899999999999992,-0.1337174269739341,-0.8899999999999992,-0.1649065632078248,-0.8899999999999992,-0.1978538721532481,-0.8899999999999992,-0.2218684759651527
-0.8799999999999992,-0.1120880081956258,-0.8799999999999992,-0.1266942326534655,-0.8799999999999992,-0.1578633389607901,-0.8799999999999992,-0.19079456627073,-0.8799999999999992,-0.2148009271201686
-0.8699999999999992,-0.105082239938845,-0.8699999999999992,-0.1196776317443274,-0.8699999999999992,-0.1508263951521627,-0.8699999999999992,-0.1837412337991053,-0.8699999999999992,-0.207739145971579
-0.8599999999999992,-0.09808326072445653,-0.8599999999999992,-0.1126676686877334,-0.8599999999999992,-0.1437957727515054,-0.8599999999999992,-0.1766939123567808,-0.8599999999999992,-0.2006831679610414
-0.8499999999999992,-0.09109111720579326,-0.8499999999999992,-0.1056643884353037,-0.8499999999999992,-0.1367715131800783,-0.8499999999999992,-0.1696526399599612,-0.8499999999999992,-0.1936330288981332
-0.8399999999999992,-0.08410585658424057,-0.8399999999999992,-0.09866783645701471,-0.8399999999999992,-0.1297536583176545,-0.8399999999999992,-0.1626174550284678,-0.8399999999999992,-0.1865887649661598
-0.8299999999999992,-0.07712752661797281,-0.8299999999999992,-0.09167805874932619,-0.8299999999999992,-0.1227422505094367,-0.8299999999999992,-0.1555883963916976,-0.8299999999999992,-0.1795504127281414
-0.8199999999999992,-0.07015617563084683,-0.8199999999999992,-0.08469510184345753,-0.8199999999999992,-0.1157373325730831,-0.8199999999999992,-0.148565503294671,-0.8199999999999992,-0.1725180091330041
-0.8099999999999992,-0.06319185252150236,-0.8099999999999992,-0.07771901281383356,-0.8099999999999992,-0.108738947805904,-0.8099999999999992,-0.1415488154042361,-0.8099999999999992,-0.1654915915219634
-0.7999999999999992,-0.05623460677262664,-0.7999999999999992,-0.07074983928668307,-0.7999999999999992,-0.1017471399921867,-0.7999999999999992,-0.1345383728153911,-0.7999999999999992,-0.1584711976351554
-0.7899999999999991,-0.04928448846040974,-0.7899999999999991,-0.06378762944883673,-0.7899999999999991,-0.09476195341063325,-0.7899999999999991,-0.1275342160577401,-0.7899999999999991,-0.1514568656185017
-0.7799999999999991,-0.04234154826418061,-0.7799999999999991,-0.05683243205666023,-0.7799999999999991,-0.0877834328419858,-0.7799999999999991,-0.1205363861020959,-0.7799999999999991,-0.1444486340308528
-0.7699999999999991,-0.03540583747626988,-0.7699999999999991,-0.04988429644519077,-0.7699999999999991,-0.08081162357674897,-0.7699999999999991,-0.1135449243672483,-0.7699999999999991,-0.1374465418514009
-0.7599999999999991,-0.02847740801203074,-0.7599999999999991,-0.04294327253747021,-0.7599999999999991,-0.07384657142310778,-0.7599999999999991,-0.1065598727268463,-0.7599999999999991,-0.1304506284874402
-0.7499999999999991,-0.02155631242011315,-0.7499999999999991,-0.03600941085402296,-0.7499999999999991,-0.06688832271498021,-0.7499999999999991,-0.09958127351650432,-0.7499999999999991,-0.12346093378244
-0.7399999999999991,-0.0146426038928972,-0.7399999999999991,-0.02908276252256791,-0.7399999999999991,-0.05993692432021287,-0.7399999999999991,-0.0926091695410106,-0.7399999999999991,-0.1164774980245122
-0.7299999999999991,-0.007736336277188834,-0.7299999999999991,-0.02216337928790546,-0.7299999999999991,-0.05299242364896787,-0.7299999999999991,-0.0856436040817945,-0.7299999999999991,-0.1095003619552946
-0.7199999999999991,-0.0008375640851209803,-0.7199999999999991,-0.01525131352201086,-0.7199999999999991,-0.04605486866226351,-0.7199999999999991,-0.07868462090453027,-0.7199999999999991,-0.1025295667792738
-0.7099999999999991,0.006063101587623894,-0.7099999999999991,-0.008346618234330265,-0.7099999999999991,-0.03912430788067152,-0.7099999999999991,-0.07173226426696473,-0.7099999999999991,-0.09556515417361519
-0.6999999999999991,0.01298059921540999,-0.6999999999999991,-0.001449347082304725,-0.6999999999999991,-0.0322007903932137,-0.6999999999999991,-0.06478657892695472,-0.6999999999999991,-0.08860716629851914
-0.6899999999999991,0.01991505155444092,-0.6899999999999991,0.005448038088850978,-0.6899999999999991,-0.02528436586640873,-0.6899999999999991,-0.05784761015076503,-0.6899999999999991,-0.08165564580822897
-0.679999999999999,0.02686639215514151,-0.679999999999999,0.01236185584176657,-0.679999999999999,-0.01837508455355242,-0.679999999999999,-0.05091540372157347,-0.679999999999999,-0.07471063586263191
-0.669999999999999,0.03383455366294996,-0.669999999999999,0.01929259546413114,-0.669999999999999,-0.0114729973041175,-0.669999999999999,-0.04399000594826741,-0.669999999999999,-0.06777218013964968
-0.659999999999999,0.0408194684608799,-0.659999999999999,0.02624019111230895,-0.659999999999999,-0.004578155573418522,-0.659999999999999,-0.03707146367452054,-0.659999999999999,-0.06084032284841064
-0.649999999999999,0.04782106868017301,-0.649999999999999,0.03320457581869626,-0.649999999999999,0.002310730476484261,-0.649999999999999,-0.03015982428818101,-0.649999999999999,-0.05391510874332636
-0.639999999999999,0.05483928621091266,-0.639999999999999,0.04018568235498422,-0.639999999999999,0.009211137074711556,-0.639999999999999,-0.02325513573096942,-0.639999999999999,-0.04699658313915465
-0.629999999999999,0.06187405271248952,-0.629999999999999,0.04718344324261999,-0.629999999999999,0.01612840794502026,-0.629999999999999,-0.01635744650857683,-0.629999999999999,-0.04008479192717329
-0.619999999999999,0.06892529962402694,-0.619999999999999,0.05419779076318067,-0.619999999999999,0.02306247831902538,-0.619999999999999,-0.009466805701117825,-0.619999999999999,-0.03317978159255341
-0.609999999999999,0.07599295817465526,-0.609999999999999,0.06122865696866088,-0.609999999999999,0.03001328223318064,-0.609999999999999,-0.00258326297403505,-0.609999999999999,-0.02628159923309717
-0.599999999999999,0.08307695939372717,-0.599999999999999,0.06827597369164795,-0.599999999999999,0.03698075346035271,-0.599999999999999,0.004297768062942581,-0.599999999999999,-0.01939029257948617
