;Version, 1, 0
;/M0/D (tempval=-40),;/M0/D (tempval=-20),;/M0/D (tempval=27),;/M0/D (tempval=80),;/M0/D (tempval=120)
;X, Y,;X, Y,;X, Y,;X, Y,;X, Y
;Re, Re,;Re, Re,;Re, Re,;Re, Re,;Re, Re
;VG, I,;VG, I,;VG, I,;VG, I,;VG, I
;xunit, A,;xunit, A,;xunit, A,;xunit, A,;xunit, A
-1.8,-3.025774546294577e-06,-1.8,-2.891527619223776e-06,-1.8,-2.623098899279101e-06,-1.8,-2.378942686821967e-06,-1.8,-2.224799089890425e-06
-1.775,-2.974498599233837e-06,-1.775,-2.841910114865211e-06,-1.775,-2.57720671234773e-06,-1.775,-2.336988443966213e-06,-1.775,-2.185634687520735e-06
-1.75,-2.921670331537227e-06,-1.75,-2.790941203060496e-06,-1.75,-2.530343374107989e-06,-1.75,-2.294373704872567e-06,-1.75,-2.14598323803863e-06
-1.725,-2.867293055182613e-06,-1.725,-2.738627245723573e-06,-1.725,-2.482518298156703e-06,-1.725,-2.251107459052254e-06,-1.725,-2.105852212580646e-06
-1.7,-2.811372595060592e-06,-1.7,-2.684976690936041e-06,-1.7,-2.433742188356701e-06,-1.7,-2.207199395004244e-06,-1.7,-2.065249497039891e-06
-1.675,-2.753917380512478e-06,-1.675,-2.630000133729271e-06,-1.675,-2.384027059426298e-06,-1.675,-2.16265990424692e-06,-1.675,-2.024183391947325e-06
-1.650000000000001,-2.694938532435993e-06,-1.650000000000001,-2.573710373013422e-06,-1.650000000000001,-2.333386255264943e-06,-1.650000000000001,-2.117500084253624e-06,-1.650000000000001,-1.982662611631403e-06
-1.625000000000001,-2.634449945499396e-06,-1.625000000000001,-2.516122464386099e-06,-1.625000000000001,-2.281834464957127e-06,-1.625000000000001,-2.071731740254321e-06,-1.625000000000001,-1.940696282584e-06
-1.600000000000001,-2.572468365072821e-06,-1.600000000000001,-2.457253768612933e-06,-1.600000000000001,-2.229387736425206e-06,-1.600000000000001,-2.025367385862302e-06,-1.600000000000001,-1.898293940943359e-06
-1.575000000000001,-2.509013458574672e-06,-1.575000000000001,-2.397123995644323e-06,-1.575000000000001,-2.176063487731687e-06,-1.575000000000001,-1.978420242479539e-06,-1.575000000000001,-1.85546552898353e-06
-1.550000000000001,-2.444107881048508e-06,-1.550000000000001,-2.335755244125817e-06,-1.550000000000001,-2.12188051606917e-06,-1.550000000000001,-1.930904237426554e-06,-1.550000000000001,-1.812221390475201e-06
-1.525000000000001,-2.377777334941165e-06,-1.525000000000001,-2.273172036477882e-06,-1.525000000000001,-2.066859004519841e-06,-1.525000000000001,-1.8828340007333e-06,-1.525000000000001,-1.768572264753119e-06
-1.500000000000001,-2.31005062425489e-06,-1.500000000000001,-2.209401349771805e-06,-1.500000000000001,-2.011020526721277e-06,-1.500000000000001,-1.834224860516174e-06,-1.500000000000001,-1.724529279292649e-06
-1.475000000000001,-2.240959703510911e-06,-1.475000000000001,-2.144472642823668e-06,-1.475000000000001,-1.954388049644206e-06,-1.475000000000001,-1.785092836855937e-06,-1.475000000000001,-1.680103940562351e-06
-1.450000000000001,-2.170539722311422e-06,-1.450000000000001,-2.078417880182165e-06,-1.450000000000001,-1.896985934778256e-06,-1.450000000000001,-1.735454634083767e-06,-1.450000000000001,-1.635308122883928e-06
-1.425000000000001,-2.098829066753239e-06,-1.425000000000001,-2.011271554023601e-06,-1.425000000000001,-1.838839938144411e-06,-1.425000000000001,-1.685327631384528e-06,-1.425000000000001,-1.590154055000029e-06
-1.400000000000001,-2.025869399579138e-06,-1.400000000000001,-1.943070705423717e-06,-1.400000000000001,-1.779977209725397e-06,-1.400000000000001,-1.63472987164705e-06,-1.400000000000001,-1.544654304031493e-06
-1.375000000000002,-1.951705701828899e-06,-1.375000000000002,-1.873854947107997e-06,-1.375000000000002,-1.720426293156003e-06,-1.375000000000002,-1.583680048546843e-06,-1.375000000000002,-1.498821756511582e-06
-1.350000000000002,-1.876386319989679e-06,-1.350000000000002,-1.80366649067683e-06,-1.350000000000002,-1.660217126888635e-06,-1.350000000000002,-1.532197491962939e-06,-1.350000000000002,-1.452669596234066e-06
-1.325000000000002,-1.79996302443406e-06,-1.325000000000002,-1.732550182598033e-06,-1.325000000000002,-1.599381048616876e-06,-1.325000000000002,-1.480302152047367e-06,-1.325000000000002,-1.406211278774715e-06
-1.300000000000002,-1.722491087575608e-06,-1.300000000000002,-1.660553555176096e-06,-1.300000000000002,-1.53795080561193e-06,-1.300000000000002,-1.428014582645691e-06,-1.300000000000002,-1.359460502785149e-06
-1.275000000000002,-1.644029394152065e-06,-1.275000000000002,-1.58772690159495e-06,-1.275000000000002,-1.475960574979073e-06,-1.275000000000002,-1.375355925403807e-06,-1.275000000000002,-1.312431178579468e-06
-1.250000000000002,-1.564640602156933e-06,-1.250000000000002,-1.514123388548927e-06,-1.250000000000002,-1.41344599994466e-06,-1.250000000000002,-1.322347896932747e-06,-1.250000000000002,-1.265137395232546e-06
-1.225000000000002,-1.48439138246624e-06,-1.225000000000002,-1.439799226820526e-06,-1.225000000000002,-1.350444251560401e-06,-1.225000000000002,-1.269012783050582e-06,-1.225000000000002,-1.21759338852146e-06
-1.200000000000002,-1.403352780257716e-06,-1.200000000000002,-1.364813930868834e-06,-1.200000000000002,-1.286994130306505e-06,-1.200000000000002,-1.215373446692346e-06,-1.200000000000002,-1.169813513765524e-06
-1.175000000000002,-1.321600765341338e-06,-1.175000000000002,-1.289230715353946e-06,-1.175000000000002,-1.223136229980133e-06,-1.175000000000002,-1.161453360031735e-06,-1.175000000000002,-1.121812230234243e-06
-1.150000000000002,-1.239217077163823e-06,-1.150000000000002,-1.213117103198699e-06,-1.150000000000002,-1.158913198467669e-06,-1.150000000000002,-1.107276677353516e-06,-1.150000000000002,-1.073604107688469e-06
-1.125000000000002,-1.156290532734931e-06,-1.125000000000002,-1.136545862080233e-06,-1.125000000000002,-1.094370148769896e-06,-1.125000000000002,-1.05286837419936e-06,-1.125000000000002,-1.025203871341001e-06
-1.100000000000003,-1.072919067008427e-06,-1.100000000000003,-1.059596453257836e-06,-1.100000000000003,-1.029555302306975e-06,-1.100000000000003,-9.982544916132078e-07,-1.100000000000003,-9.766265098121807e-07
-1.075000000000003,-9.89212939300853e-07,-1.075000000000003,-9.823572824747835e-07,-1.075000000000003,-9.645209899133811e-07,-1.075000000000003,-9.434625437764338e-07,-1.075000000000003,-9.278874825101996e-07
-1.050000000000003,-9.052998037183519e-07,-1.050000000000003,-9.049292085897141e-07,-1.050000000000003,-8.993252008757011e-07,-1.050000000000003,-8.885221754233064e-07,-1.050000000000003,-8.790030795896521e-07
-1.025000000000003,-8.213327628693413e-07,-1.025000000000003,-8.274310223519807e-07,-1.025000000000003,-8.340339661068768e-07,-1.025000000000003,-8.334661953608988e-07,-1.025000000000003,-8.299910108788244e-07
-1.000000000000003,-7.375031811243968e-07,-1.000000000000003,-7.500079963609325e-07,-1.000000000000003,-7.687249996527987e-07,-1.000000000000003,-7.783321680501349e-07,-1.000000000000003,-7.8087133186694e-07
-0.9750000000000029,-6.540610173893116e-07,-0.9750000000000029,-6.728451733337271e-07,-0.9750000000000029,-7.034932155232476e-07,-0.9750000000000029,-7.231648206512015e-07,-0.9750000000000029,-7.316678570861193e-07
-0.9500000000000028,-5.713467961412323e-07,-0.9500000000000028,-5.961878282130704e-07,-0.9500000000000028,-6.384589922175535e-07,-0.9500000000000028,-6.680196213594668e-07,-0.9500000000000028,-6.824102657276483e-07
-0.9250000000000028,-4.898408882176448e-07,-0.9250000000000028,-5.203724376183716e-07,-0.9250000000000028,-5.737803653250996e-07,-0.9250000000000028,-6.129680056589806e-07,-0.9250000000000028,-6.331371713871168e-07
-0.9000000000000028,-4.102365749392434e-07,-0.9000000000000028,-4.458721472852141e-07,-0.9000000000000028,-5.096706312361969e-07,-0.9000000000000028,-5.581048601391756e-07,-0.9000000000000028,-5.839005041719283e-07
-0.8750000000000028,-3.335403600192162e-07,-0.8750000000000028,-3.733600106402867e-07,-0.8750000000000028,-4.464229745981652e-07,-0.8750000000000028,-5.035589880054677e-07,-0.8750000000000028,-5.347716283087643e-07
-0.8500000000000028,-2.611880918386876e-07,-0.8500000000000028,-3.037883279217678e-07,-0.8500000000000028,-3.844432976363991e-07,-0.8500000000000028,-4.495073057461792e-07,-0.8500000000000028,-4.858496670502094e-07
-0.8250000000000027,-1.95121702644017e-07,-0.8250000000000027,-2.384671513224476e-07,-0.8250000000000027,-3.242906353364335e-07,-0.8250000000000027,-3.961933157435448e-07,-0.8250000000000027,-4.37272479791999e-07
-0.8000000000000027,-1.376805644306562e-07,-0.8000000000000027,-1.790895479309268e-07,-0.8000000000000027,-2.667199703036474e-07,-0.8000000000000027,-3.439497132022202e-07,-0.8000000000000027,-3.892305456304642e-07
-0.7750000000000027,-9.107675389899825e-08,-0.7750000000000027,-1.275918348740467e-07,-0.7750000000000027,-2.127128350354332e-07,-0.7750000000000027,-2.93223417163569e-07,-0.7750000000000027,-3.419835098637456e-07
-0.7500000000000027,-5.642337034386549e-08,-0.7500000000000027,-8.570525693684757e-08,-0.7500000000000027,-1.634649813733409e-07,-0.7500000000000027,-2.445983232474487e-07,-0.7500000000000027,-2.95878138309219e-07
-0.7250000000000026,-3.296572818252449e-08,-0.7250000000000026,-5.422855963646488e-08,-0.7250000000000026,-1.202804549381157e-07,-0.7250000000000026,-1.988061367815459e-07,-0.7250000000000026,-2.513646495461743e-07
-0.7000000000000026,-1.837603894474541e-08,-0.7000000000000026,-3.249639188960712e-08,-0.7000000000000026,-8.431852592882408e-08,-0.7000000000000026,-1.567088042609039e-07,-0.7000000000000026,-2.090056619368048e-07
-0.6750000000000026,-9.868804553103936e-09,-0.6750000000000026,-1.861154350182989e-08,-0.6750000000000026,-5.620881796865945e-08,-0.6750000000000026,-1.192294347915693e-07,-0.6750000000000026,-1.694684114242808e-07
-0.6500000000000026,-5.122001637685046e-09,-0.6500000000000026,-1.027019342312167e-08,-0.6500000000000026,-3.57211215760551e-08,-0.6500000000000026,-8.72097989935018e-08,-0.6500000000000026,-1.334874342916888e-07
-0.6250000000000026,-2.559512792188781e-09,-0.6250000000000026,-5.479925274582882e-09,-0.6250000000000026,-2.177277134958262e-08,-0.6250000000000026,-6.119846636989354e-08,-0.6250000000000026,-1.017844394405874e-07
-0.6000000000000025,-1.223710721667956e-09,-0.6000000000000025,-2.824199381014973e-09,-0.6000000000000025,-1.281832064098141e-08,-0.6000000000000025,-4.12389439168152e-08,-0.6000000000000025,-7.494077282001754e-08
-0.5750000000000025,-5.577750287594889e-10,-0.5750000000000025,-1.401787556967149e-09,-0.5750000000000025,-7.328971957072469e-09,-0.5750000000000025,-2.679194580505442e-08,-0.5750000000000025,-5.324384086309969e-08
-0.5500000000000025,-2.42875418691695e-10,-0.5500000000000025,-6.693128966669843e-10,-0.5500000000000025,-4.080887165511518e-09,-0.5500000000000025,-1.687949976560117e-08,-0.5500000000000025,-3.656920651463424e-08
-0.5250000000000025,-1.017357173893273e-10,-0.5250000000000025,-3.081558363367579e-10,-0.5250000000000025,-2.214817172445456e-09,-0.5250000000000025,-1.037177402544696e-08,-0.5250000000000025,-2.437777546669028e-08
-0.5000000000000024,-4.138139341736749e-11,-0.5000000000000024,-1.375552355131676e-10,-0.5000000000000024,-1.17230847643982e-09,-0.5000000000000024,-6.241693793032616e-09,-0.5000000000000024,-1.585277872819554e-08
-0.4750000000000024,-1.650697599233752e-11,-0.4750000000000024,-5.994738835150239e-11,-0.4750000000000024,-6.060799954850229e-10,-0.4750000000000024,-3.687698888099553e-09,-0.4750000000000024,-1.010412606212243e-08
-0.4500000000000024,-6.524989982697895e-12,-0.4500000000000024,-2.568967404371885e-11,-0.4500000000000024,-3.069009364292572e-10,-0.4500000000000024,-2.141786381033972e-09,-0.4500000000000024,-6.334033190186037e-09
-0.4250000000000024,-2.591644418399161e-12,-0.4250000000000024,-1.090280419706751e-11,-0.4250000000000024,-1.527541579122979e-10,-0.4250000000000024,-1.224116941934392e-09,-0.4250000000000024,-3.91359866685563e-09
-0.4000000000000024,-1.060241804444705e-12,-0.4000000000000024,-4.620827330725437e-12,-0.4000000000000024,-7.501743034247045e-11,-0.4000000000000024,-6.89423645054953e-10,-0.4000000000000024,-2.386377845174369e-09
-0.3750000000000023,-4.685982990660894e-13,-0.3750000000000023,-1.980898696811168e-12,-0.3750000000000023,-3.648372128914904e-11,-0.3750000000000023,-3.833010952948249e-10,-0.3750000000000023,-1.437477992756219e-09
-0.3500000000000023,-2.411386781124927e-13,-0.3500000000000023,-8.795492167807055e-13,-0.3500000000000023,-1.763362054190545e-11,-0.3500000000000023,-2.108050830036321e-10,-0.3500000000000023,-8.563340810273267e-10
-0.3250000000000023,-1.539592244839253e-13,-0.3250000000000023,-4.222799531801876e-13,-0.3250000000000023,-8.50259427857624e-12,-0.3250000000000023,-1.14932743862826e-10,-0.3250000000000023,-5.051933358070344e-10
-0.3000000000000023,-1.206095490591242e-13,-0.3000000000000023,-2.330210502488104e-13,-0.3000000000000023,-4.11094216153205e-12,-0.3000000000000023,-6.225141979820452e-11,-0.3000000000000023,-2.956278739597028e-10
-0.2750000000000022,-1.078671343499428e-13,-0.2750000000000022,-1.548481452964794e-13,-0.2750000000000022,-2.009466204127553e-12,-0.2750000000000022,-3.356687627439712e-11,-0.2750000000000022,-1.719103496691219e-10
-0.2500000000000022,-1.030020431661856e-13,-0.2500000000000022,-1.226015053849558e-13,-0.2500000000000022,-1.007484791935317e-12,-0.2500000000000022,-1.805969952529983e-11,-0.2500000000000022,-9.95481163662977e-11
-0.2250000000000022,-1.011453872318951e-13,-0.2250000000000022,-1.09310922997458e-13,-0.2250000000000022,-5.309422625714215e-13,-0.2250000000000022,-9.722230795587949e-12,-0.2250000000000022,-5.754775668030582e-11
-0.2000000000000022,-1.004370358579754e-13,-0.2000000000000022,-1.038361494285408e-13,-0.2000000000000022,-3.046955036974699e-13,-0.2000000000000022,-5.258139798907979e-12,-0.2000000000000022,-3.332128900222151e-11
-0.1750000000000022,-1.001668331152102e-13,-0.1750000000000022,-1.015817256362335e-13,-0.1750000000000022,-1.974115124338114e-13,-0.1750000000000022,-2.875367203530349e-12,-0.1750000000000022,-1.941609682419744e-11
-0.1500000000000022,-1.000637747064198e-13,-0.1500000000000022,-1.006536001955989e-13,-0.1500000000000022,-1.465812890918382e-13,-0.1500000000000022,-1.606459679441454e-12,-0.1500000000000022,-1.146590642257409e-11
-0.1250000000000022,-1.000244697171328e-13,-0.1250000000000022,-1.002715551840328e-13,-0.1250000000000022,-1.225123663511035e-13,-0.1250000000000022,-9.318739945359e-13,-0.1250000000000022,-6.93412136137409e-12
-0.1000000000000023,-1.00009479995655e-13,-0.1000000000000023,-1.001143084545544e-13,-0.1000000000000023,-1.111199179648378e-13,-0.1000000000000023,-5.736953038966722e-13,-0.1000000000000023,-4.35688994131059e-12
-0.07500000000000226,-1.000037635259096e-13,-0.07500000000000226,-1.000495908575255e-13,-0.07500000000000226,-1.057290669554922e-13,-0.07500000000000226,-3.836912002169164e-13,-0.07500000000000226,-2.893815783201778e-12
-0.05000000000000226,-1.000015835337042e-13,-0.05000000000000226,-1.00022956263026e-13,-0.05000000000000226,-1.031786292014601e-13,-0.05000000000000226,-2.829669836701396e-13,-0.05000000000000226,-2.064362937906926e-12
-0.02500000000000226,-1.000007521964082e-13,-0.02500000000000226,-1.000119950482564e-13,-0.02500000000000226,-1.01972163515455e-13,-0.02500000000000226,-2.295977241432653e-13,-0.02500000000000226,-1.5946084711964e-12
0,-1.000004351692336e-13,0,-1.000074841399998e-13,0,-1.014015056979984e-13,0,-2.013298936622729e-13,0,-1.328773432842822e-12
