;Version, 1, 0
;/M0/D (VB=0),;/M0/D (VB=0.1),;/M0/D (VB=0.2),;/M0/D (VB=0.3),;/M0/D (VB=0.4),;/M0/D (VB=0.5),;/M0/D (VB=0.6),;/M0/D (VB=0.7),;/M0/D (VB=0.8),;/M0/D (VB=0.9)
;X, Y,;X, Y,;X, Y,;X, Y,;X, Y,;X, Y,;X, Y,;X, Y,;X, Y,;X, Y
;Re, Re,;Re, Re,;Re, Re,;Re, Re,;Re, Re,;Re, Re,;Re, Re,;Re, Re,;Re, Re,;Re, Re
;VG, I,;VG, I,;VG, I,;VG, I,;VG, I,;VG, I,;VG, I,;VG, I,;VG, I,;VG, I
;xunit, A,;xunit, A,;xunit, A,;xunit, A,;xunit, A,;xunit, A,;xunit, A,;xunit, A,;xunit, A,;xunit, A
-1.8,-2.623098899279101e-06,-1.8,-2.490437051278631e-06,-1.8,-2.365398477092834e-06,-1.8,-2.247145464489927e-06,-1.8,-2.134988917990756e-06,-1.8,-2.02835252435e-06,-1.8,-1.926747518175986e-06,-1.8,-1.829754422973667e-06,-1.8,-1.737009527649019e-06,-1.8,-1.648194665644061e-06
-1.775,-2.57720671234773e-06,-1.775,-2.445042829200627e-06,-1.775,-2.320420815991403e-06,-1.775,-2.202516917267448e-06,-1.775,-2.090653171608206e-06,-1.775,-1.984262292876457e-06,-1.775,-1.882862935598851e-06,-1.775,-1.786041795229672e-06,-1.775,-1.693440349447239e-06,-1.775,-1.604744836923653e-06
-1.75,-2.530343374107989e-06,-1.75,-2.398687588881361e-06,-1.75,-2.274491884068136e-06,-1.75,-2.156946436893085e-06,-1.75,-2.045384421090364e-06,-1.75,-1.939247595748027e-06,-1.75,-1.838062065300871e-06,-1.75,-1.741420735817867e-06,-1.75,-1.648970319227734e-06,-1.75,-1.560401510849603e-06
-1.725,-2.482518298156703e-06,-1.725,-2.351379711567086e-06,-1.725,-2.22761915839778e-06,-1.725,-2.110440707301545e-06,-1.725,-1.999188655271268e-06,-1.725,-1.893313815059853e-06,-1.725,-1.792349764087111e-06,-1.725,-1.695895653223529e-06,-1.725,-1.603603471938777e-06,-1.725,-1.515168423762518e-06
-1.7,-2.433742188356701e-06,-1.7,-2.303128843826258e-06,-1.7,-2.179811358693831e-06,-1.7,-2.063007635230843e-06,-1.7,-1.952073069375182e-06,-1.7,-1.84646752692833e-06,-1.7,-1.745732075193362e-06,-1.7,-1.649472140477702e-06,-1.7,-1.557345032126513e-06,-1.7,-1.469050515290734e-06
-1.675,-2.384027059426298e-06,-1.675,-2.253945922369884e-06,-1.675,-2.131078476220663e-06,-1.675,-2.014656383240414e-06,-1.675,-1.904046102318503e-06,-1.675,-1.798716543446809e-06,-1.675,-1.69821627550976e-06,-1.675,-1.602157028595154e-06,-1.675,-1.510201475010602e-06,-1.675,-1.422053999199803e-06
-1.650000000000001,-2.333386255264943e-06,-1.650000000000001,-2.203843197052778e-06,-1.650000000000001,-2.081431801384275e-06,-1.650000000000001,-1.965397401977577e-06,-1.650000000000001,-1.855117473934425e-06,-1.650000000000001,-1.750069955393931e-06,-1.650000000000001,-1.649810924623474e-06,-1.650000000000001,-1.553958443265158e-06,-1.650000000000001,-1.462180592827578e-06,-1.650000000000001,-1.374186442453089e-06
-1.625000000000001,-2.281834464957127e-06,-1.625000000000001,-2.152834252029478e-06,-1.625000000000001,-2.030883950022906e-06,-1.625000000000001,-1.915242461786988e-06,-1.625000000000001,-1.805298222327373e-06,-1.625000000000001,-1.700538176076418e-06,-1.625000000000001,-1.600525916339883e-06,-1.625000000000001,-1.504885865904254e-06,-1.625000000000001,-1.413291568288446e-06,-1.625000000000001,-1.32545685555289e-06
-1.600000000000001,-2.229387736425206e-06,-1.600000000000001,-2.100934025070962e-06,-1.600000000000001,-1.979448888463332e-06,-1.600000000000001,-1.864204683823477e-06,-1.600000000000001,-1.754600741668072e-06,-1.600000000000001,-1.650132986860216e-06,-1.600000000000001,-1.5503725336347e-06,-1.600000000000001,-1.454950200685932e-06,-1.600000000000001,-1.363545057878223e-06,-1.600000000000001,-1.275875798763163e-06
-1.575000000000001,-2.176063487731687e-06,-1.575000000000001,-2.048158825088628e-06,-1.575000000000001,-1.927141957465794e-06,-1.575000000000001,-1.812298570917388e-06,-1.575000000000001,-1.703038820886571e-06,-1.575000000000001,-1.598867585194009e-06,-1.575000000000001,-1.49936350842653e-06,-1.575000000000001,-1.404163849933014e-06,-1.575000000000001,-1.312953289083371e-06,-1.575000000000001,-1.225455511197805e-06
-1.550000000000001,-2.12188051606917e-06,-1.550000000000001,-1.994526347961729e-06,-1.550000000000001,-1.873979895255914e-06,-1.550000000000001,-1.759540038564206e-06,-1.550000000000001,-1.650627683930331e-06,-1.550000000000001,-1.546756636299842e-06,-1.550000000000001,-1.447513088221254e-06,-1.550000000000001,-1.352540801442916e-06,-1.550000000000001,-1.261530177742402e-06,-1.550000000000001,-1.17421007348412e-06
-1.525000000000001,-2.066859004519841e-06,-1.525000000000001,-1.940055690828842e-06,-1.525000000000001,-1.819980859943754e-06,-1.525000000000001,-1.705946446584071e-06,-1.525000000000001,-1.597384032563284e-06,-1.525000000000001,-1.493816330263674e-06,-1.525000000000001,-1.394837112694398e-06,-1.525000000000001,-1.300096733151929e-06,-1.525000000000001,-1.209291475009122e-06,-1.525000000000001,-1.122155620551244e-06
-1.500000000000001,-2.011020526721277e-06,-1.500000000000001,-1.88476736508758e-06,-1.500000000000001,-1.765164451771882e-06,-1.500000000000001,-1.65153663224881e-06,-1.500000000000001,-1.543326093143709e-06,-1.500000000000001,-1.440064447111733e-06,-1.500000000000001,-1.341353104846811e-06,-1.500000000000001,-1.246849143407591e-06,-1.500000000000001,-1.156254958575328e-06,-1.500000000000001,-1.069310630256116e-06
-1.475000000000001,-1.954388049644206e-06,-1.475000000000001,-1.828683308460992e-06,-1.475000000000001,-1.70955173583643e-06,-1.475000000000001,-1.596330946048562e-06,-1.475000000000001,-1.488473669520153e-06,-1.475000000000001,-1.385520433773072e-06,-1.475000000000001,-1.287080383811365e-06,-1.475000000000001,-1.192817519595221e-06,-1.475000000000001,-1.102440690885334e-06,-1.475000000000001,-1.015696327924154e-06
-1.450000000000001,-1.896985934778256e-06,-1.450000000000001,-1.771826896647522e-06,-1.450000000000001,-1.653165266221375e-06,-1.450000000000001,-1.540351291834136e-06,-1.450000000000001,-1.432848205263225e-06,-1.450000000000001,-1.330205498870862e-06,-1.450000000000001,-1.232040210202686e-06,-1.450000000000001,-1.138023564876428e-06,-1.450000000000001,-1.047871379739998e-06,-1.450000000000001,-9.613372693407882e-07
-1.425000000000001,-1.838839938144411e-06,-1.425000000000001,-1.714222955301053e-06,-1.425000000000001,-1.596029112929434e-06,-1.425000000000001,-1.483621173934995e-06,-1.425000000000001,-1.376472860120585e-06,-1.425000000000001,-1.274142734469113e-06,-1.425000000000001,-1.176255980869317e-06,-1.425000000000001,-1.082491513772665e-06,-1.425000000000001,-9.925728964822772e-07,-1.425000000000001,-9.062621996902708e-07
-1.400000000000001,-1.779977209725397e-06,-1.400000000000001,-1.65589777342559e-06,-1.400000000000001,-1.538168893666314e-06,-1.400000000000001,-1.426165755185339e-06,-1.400000000000001,-1.319372608182273e-06,-1.400000000000001,-1.217357278877108e-06,-1.400000000000001,-1.119753499241062e-06,-1.400000000000001,-1.026248584471719e-06,-1.400000000000001,-9.365750377637653e-07,-1.400000000000001,-8.505053399868201e-07
-1.375000000000002,-1.720426293156003e-06,-1.375000000000002,-1.596879119779133e-06,-1.375000000000002,-1.479611813570286e-06,-1.375000000000002,-1.368011931861259e-06,-1.375000000000002,-1.261574369299723e-06,-1.375000000000002,-1.159876542389778e-06,-1.375000000000002,-1.062561362036781e-06,-1.375000000000002,-9.693256424153272e-07,-1.375000000000002,-8.799126645409045e-07,-1.375000000000002,-7.941083352672672e-07
-1.350000000000002,-1.660217126888635e-06,-1.350000000000002,-1.537196264661629e-06,-1.350000000000002,-1.420386717583465e-06,-1.350000000000002,-1.309188434757838e-06,-1.350000000000002,-1.203107191636117e-06,-1.350000000000002,-1.101730529975932e-06,-1.350000000000002,-1.004711525771652e-06,-1.350000000000002,-9.117581910084481e-07,-1.350000000000002,-8.226274249703889e-07,-1.350000000000002,-7.371232235629353e-07
-1.325000000000002,-1.599381048616876e-06,-1.325000000000002,-1.476880010665968e-06,-1.325000000000002,-1.360524162656079e-06,-1.325000000000002,-1.249725970667844e-06,-1.325000000000002,-1.144002513103638e-06,-1.325000000000002,-1.042952313803258e-06,-1.325000000000002,-9.46240151599799e-07,-1.325000000000002,-8.535878686348109e-07,-1.325000000000002,-7.647703782852677e-07,-1.325000000000002,-6.796169686292259e-07
-1.300000000000002,-1.53795080561193e-06,-1.300000000000002,-1.415962737841985e-06,-1.300000000000002,-1.300056520864645e-06,-1.300000000000002,-1.189657426368e-06,-1.300000000000002,-1.084294544808575e-06,-1.300000000000002,-9.835787377178613e-07,-1.300000000000002,-8.87188880945767e-07,-1.300000000000002,-7.94864727194991e-07,-1.300000000000002,-7.064060003758367e-07,-1.300000000000002,-6.216783613278043e-07
-1.275000000000002,-1.475960574979073e-06,-1.275000000000002,-1.354478471635384e-06,-1.275000000000002,-1.239018130583347e-06,-1.275000000000002,-1.129018169417832e-06,-1.275000000000002,-1.024020843423126e-06,-1.275000000000002,-9.236514807495165e-07,-1.275000000000002,-8.276067763255295e-07,-1.275000000000002,-7.356507104154064e-07,-1.275000000000002,-6.476182869586451e-07,-1.275000000000002,-5.634284461748839e-07
-1.250000000000002,-1.41344599994466e-06,-1.250000000000002,-1.292462986499564e-06,-1.250000000000002,-1.177445522269307e-06,-1.250000000000002,-1.067846498975779e-06,-1.250000000000002,-9.632231760412718e-07,-1.250000000000002,-8.632186751983357e-07,-1.250000000000002,-7.675532843856888e-07,-1.250000000000002,-6.760249575599437e-07,-1.250000000000002,-5.885199915097216e-07,-1.250000000000002,-5.050360523506645e-07
-1.225000000000002,-1.350444251560401e-06,-1.225000000000002,-1.22995396513079e-06,-1.225000000000002,-1.115377760021995e-06,-1.225000000000002,-1.00618432896094e-06,-1.225000000000002,-9.019488370130805e-07,-1.225000000000002,-8.023373777883036e-07,-1.225000000000002,-7.071027574885203e-07,-1.225000000000002,-6.160918462280859e-07,-1.225000000000002,-5.292664359784015e-07,-1.225000000000002,-4.467403990006612e-07
-1.200000000000002,-1.286994130306505e-06,-1.200000000000002,-1.166991244210657e-06,-1.200000000000002,-1.052856962593453e-06,-1.200000000000002,-9.440782304379536e-07,-1.200000000000002,-8.402526606581896e-07,-1.200000000000002,-7.410773440414006e-07,-1.200000000000002,-6.46351323024806e-07,-1.200000000000002,-5.559930593582066e-07,-1.200000000000002,-4.700757425724263e-07,-1.200000000000002,-3.888828008716418e-07
-1.175000000000002,-1.223136229980133e-06,-1.175000000000002,-1.103617194415913e-06,-1.175000000000002,-9.899291020278167e-07,-1.175000000000002,-8.815810275645973e-07,-1.175000000000002,-7.782000990055411e-07,-1.175000000000002,-6.795267728726641e-07,-1.175000000000002,-5.854272253321771e-07,-1.175000000000002,-4.959253739736847e-07,-1.175000000000002,-4.112575301281178e-07,-1.175000000000002,-3.319485146452834e-07
-1.150000000000002,-1.158913198467669e-06,-1.150000000000002,-1.039877308355211e-06,-1.150000000000002,-9.266452305173075e-07,-1.150000000000002,-8.187542421660328e-07,-1.150000000000002,-7.158719149767686e-07,-1.150000000000002,-6.178009837146614e-07,-1.150000000000002,-5.24506162966025e-07,-1.150000000000002,-4.361661653424386e-07,-1.150000000000002,-3.532515478573666e-07,-1.150000000000002,-2.766163276143265e-07
-1.125000000000002,-1.094370148769896e-06,-1.125000000000002,-9.758211095401117e-07,-1.125000000000002,-8.630633647321398e-07,-1.125000000000002,-7.556718293393602e-07,-1.125000000000002,-6.533712937562949e-07,-1.125000000000002,-5.560553573906784e-07,-1.125000000000002,-4.638335022144081e-07,-1.125000000000002,-3.771083904014262e-07,-1.125000000000002,-2.966752354046448e-07,-1.125000000000002,-2.238052755211974e-07
-1.100000000000003,-1.029555302306975e-06,-1.100000000000003,-9.115035549841974e-07,-1.100000000000003,-7.992513730142391e-07,-1.100000000000003,-6.924258554402236e-07,-1.100000000000003,-5.908345040031957e-07,-1.100000000000003,-4.945042556360242e-07,-1.100000000000003,-4.03755277899097e-07,-1.100000000000003,-3.193051645214403e-07,-1.100000000000003,-2.423727879712799e-07,-1.100000000000003,-1.746922594110464e-07
-1.075000000000003,-9.645209899133811e-07,-1.075000000000003,-8.469871925113624e-07,-1.075000000000003,-7.352913781020645e-07,-1.075000000000003,-6.291350516884518e-07,-1.075000000000003,-5.284466184828151e-07,-1.075000000000003,-4.334478433327418e-07,-1.075000000000003,-3.447589311555794e-07,-1.075000000000003,-2.635193098535692e-07,-1.075000000000003,-1.914453047726587e-07,-1.075000000000003,-1.30651831256444e-07
-1.050000000000003,-8.993252008757011e-07,-1.050000000000003,-7.823454629583605e-07,-1.050000000000003,-6.712864200390604e-07,-1.050000000000003,-5.659575246425152e-07,-1.050000000000003,-4.664641173674149e-07,-1.050000000000003,-3.733083071568248e-07,-1.050000000000003,-2.87521470474166e-07,-1.050000000000003,-2.107629424635707e-07,-1.050000000000003,-1.452208692819529e-07,-1.050000000000003,-9.305409224738226e-08
-1.025000000000003,-8.340339661068768e-07,-1.025000000000003,-7.17667720483959e-07,-1.025000000000003,-6.073704259551192e-07,-1.025000000000003,-5.031092601028538e-07,-1.025000000000003,-4.05246142781972e-07,-1.025000000000003,-3.14674920315125e-07,-1.025000000000003,-2.329550169692721e-07,-1.025000000000003,-1.622941532831382e-07,-1.025000000000003,-1.051029200899859e-07,-1.025000000000003,-6.289388764777707e-08
-1.000000000000003,-7.687249996527987e-07,-1.000000000000003,-6.530667921737127e-07,-1.000000000000003,-5.437228824081657e-07,-1.000000000000003,-4.408902375644992e-07,-1.000000000000003,-3.452950711960015e-07,-1.000000000000003,-2.583520008147451e-07,-1.000000000000003,-1.822249859716055e-07,-1.000000000000003,-1.195153975840855e-07,-1.000000000000003,-7.22487383492116e-08,-1.000000000000003,-4.037369113265609e-08
-0.9750000000000029,-7.034932155232476e-07,-0.9750000000000029,-5.886902088354793e-07,-0.9750000000000029,-4.805899056514963e-07,-0.9750000000000029,-3.797195391851181e-07,-0.9750000000000029,-2.873036111831931e-07,-0.9750000000000029,-2.053925877012702e-07,-0.9750000000000029,-1.36694553914938e-07,-0.9750000000000029,-8.371344397912432e-08,-0.9750000000000029,-4.714087343646668e-08,-0.9750000000000029,-2.474082932056531e-08
-0.9500000000000028,-6.384589922175535e-07,-0.9500000000000028,-5.247365710449794e-07,-0.9500000000000028,-4.18313396742118e-07,-0.9500000000000028,-3.201788807027226e-07,-0.9500000000000028,-2.321977067766239e-07,-0.9500000000000028,-1.570819169091055e-07,-0.9500000000000028,-9.773274556697318e-08,-0.9500000000000028,-5.565003425463317e-08,-0.9500000000000028,-2.930982214150305e-08,-0.9500000000000028,-1.457204780430154e-08
-0.9250000000000028,-5.737803653250996e-07,-0.9250000000000028,-4.614787331978126e-07,-0.9250000000000028,-3.573690726243197e-07,-0.9250000000000028,-2.63058887597285e-07,-0.9250000000000028,-1.811497501020368e-07,-0.9250000000000028,-1.148134144213507e-07,-0.9250000000000028,-6.635467846804043e-08,-0.9250000000000028,-3.519334478925332e-08,-0.9250000000000028,-1.748081373991803e-08,-0.9250000000000028,-8.294223984253135e-09
-0.9000000000000028,-5.096706312361969e-07,-0.9000000000000028,-3.992952606683188e-07,-0.9000000000000028,-2.984112530122561e-07,-0.9000000000000028,-2.093918664866571e-07,-0.9000000000000028,-1.355153850301697e-07,-0.9000000000000028,-7.980230679796391e-08,-0.9000000000000028,-4.280254821945856e-08,-0.9000000000000028,-2.130049403108504e-08,-0.9000000000000028,-1.006312889745024e-08,-0.9000000000000028,-4.573847187827138e-09
-0.8750000000000028,-4.464229745981652e-07,-0.8750000000000028,-3.387102362165397e-07,-0.8750000000000028,-2.423154848933688e-07,-0.8750000000000028,-1.604370230902647e-07,-0.8750000000000028,-9.66325184272965e-08,-0.8750000000000028,-5.266820332382735e-08,-0.8750000000000028,-2.635892827393895e-08,-0.8750000000000028,-1.242162101092843e-08,-0.8750000000000028,-5.611407278334902e-09,-0.8750000000000028,-2.444728562428088e-09
-0.8500000000000028,-3.844432976363991e-07,-0.8500000000000028,-2.804376567972477e-07,-0.8500000000000028,-1.901970807758366e-07,-0.8500000000000028,-1.17563134789564e-07,-0.8500000000000028,-6.545684818796611e-08,-0.8500000000000028,-3.310676269503974e-08,-0.8500000000000028,-1.560359105997786e-08,-0.8500000000000028,-7.012360422530766e-09,-0.8500000000000028,-3.033968411436154e-09,-0.8500000000000028,-1.267002052201259e-09
-0.8250000000000027,-3.242906353364335e-07,-0.8250000000000027,-2.254183483029413e-07,-0.8250000000000027,-1.433638932711037e-07,-0.8250000000000027,-8.197380117255673e-08,-0.8250000000000027,-4.21533900400948e-08,-0.8250000000000027,-1.994683208768254e-08,-0.8250000000000027,-8.930612374864586e-09,-0.8250000000000027,-3.83933972070686e-09,-0.8250000000000027,-1.59087231306008e-09,-0.8250000000000027,-6.378808557261313e-10
-0.8000000000000027,-2.667199703036474e-07,-0.8000000000000027,-1.748224102046341e-07,-0.8000000000000027,-1.031444108900975e-07,-0.8000000000000027,-5.429983647853117e-08,-0.8000000000000027,-2.593758973934022e-08,-0.8000000000000027,-1.159608563729986e-08,-0.8000000000000027,-4.956994624885252e-09,-0.8000000000000027,-2.039314000435491e-09,-0.8000000000000027,-8.100044594648155e-10,-0.8000000000000027,-3.131783634434779e-10
-0.7750000000000027,-2.127128350354332e-07,-0.7750000000000027,-1.299698080509444e-07,-0.7750000000000027,-7.055429620822817e-08,-0.7750000000000027,-3.426650792766048e-08,-0.7750000000000027,-1.535507791039574e-08,-0.7750000000000027,-6.533691151162233e-09,-0.7750000000000027,-2.670373622411848e-09,-0.7750000000000027,-1.051598370359678e-09,-0.7750000000000027,-4.017227759381721e-10,-0.7750000000000027,-1.507678612267864e-10
-0.7500000000000027,-1.634649813733409e-07,-0.7500000000000027,-9.211114742118169e-08,-0.7500000000000027,-4.588758527399323e-08,-0.7500000000000027,-2.072997415817022e-08,-0.7500000000000027,-8.797001129283361e-09,-0.7500000000000027,-3.574039968770534e-09,-0.7500000000000027,-1.396659288658038e-09,-0.7500000000000027,-5.276824867506894e-10,-0.7500000000000027,-1.950046460817621e-10,-0.7500000000000027,-7.165475896014757e-11
-0.7250000000000026,-1.202804549381157e-07,-0.7250000000000026,-6.205762425899017e-08,-0.7250000000000026,-2.850129075718733e-08,-0.7250000000000026,-1.210448391078315e-08,-0.7250000000000026,-4.892514356379944e-09,-0.7250000000000026,-1.898728299776689e-09,-0.7250000000000026,-7.103066579933158e-10,-0.7250000000000026,-2.587234806474024e-10,-0.7250000000000026,-9.321322058786986e-11,-0.7250000000000026,-3.391611220286704e-11
-0.7000000000000026,-8.431852592882408e-08,-0.7000000000000026,-3.980448382406789e-08,-0.7000000000000026,-1.702176888131293e-08,-0.7000000000000026,-6.854956857303152e-09,-0.7000000000000026,-2.643793709118823e-09,-0.7000000000000026,-9.804670800458968e-10,-0.7000000000000026,-3.524297225599097e-10,-0.7000000000000026,-1.246188231871964e-10,-0.7000000000000026,-4.420399018474734e-11,-0.7000000000000026,-1.619599575303735e-11
-0.6750000000000026,-5.620881796865945e-08,-0.6750000000000026,-2.443890823106448e-08,-0.6750000000000026,-9.837397077722315e-09,-0.6750000000000026,-3.772943243839414e-09,-0.6750000000000026,-1.388660258178868e-09,-0.6750000000000026,-4.933044918574405e-10,-0.6750000000000026,-1.714044838128865e-10,-0.6750000000000026,-5.935005315012923e-11,-0.6750000000000026,-2.101066661838958e-11,-0.6750000000000026,-7.970620517962523e-12
-0.6500000000000026,-3.57211215760551e-08,-0.6500000000000026,-1.446446725639015e-08,-0.6500000000000026,-5.523058774053214e-09,-0.6500000000000026,-2.019255806912368e-09,-0.6500000000000026,-7.100391004881144e-10,-0.6500000000000026,-2.42791479655576e-10,-0.6500000000000026,-8.217964659380198e-11,-0.6500000000000026,-2.817796762686711e-11,-0.6500000000000026,-1.0172979353961e-11,-0.6500000000000026,-4.18356696309644e-12
-0.6250000000000026,-2.177277134958262e-08,-0.6250000000000026,-8.30103742658599e-09,-0.6250000000000026,-3.016572177245653e-09,-0.6250000000000026,-1.051596775177755e-09,-0.6250000000000026,-3.545071090990489e-10,-0.6250000000000026,-1.174813083115127e-10,-0.6250000000000026,-3.910528411565016e-11,-0.6250000000000026,-1.349905668852781e-11,-0.6250000000000026,-5.154620184803047e-12,-0.6250000000000026,-2.449864464864693e-12
