;Version, 1, 0
;/VP (row=1),;/VP (row=2)
;X, Y,;X, Y
;Re, Re,;Re, Re
;VG, V,;VG, V
;xunit, V,;xunit, V
-1.8,-0.8804513299605207,-1.8,-0.8573191658723932
-1.79,-0.872634814661173,-1.79,-0.8496747838997346
-1.78,-0.8648215136589419,-1.78,-0.8420222988839176
-1.77,-0.8570124132543125,-1.77,-0.8343738367431123
-1.76,-0.8492075329345097,-1.76,-0.8267294159009919
-1.75,-0.841406892338572,-1.75,-0.8190890549254002
-1.74,-0.8336105112593321,-1.74,-0.811452772530003
-1.73,-0.8258184096454059,-1.73,-0.8038205875761328
-1.72,-0.8180306076031922,-1.72,-0.7961925190746507
-1.71,-0.8102471253989119,-1.71,-0.7885685861878292
-1.7,-0.802467983460628,-1.7,-0.7809488082312471
-1.69,-0.7946932023803309,-1.69,-0.7733332046757052
-1.68,-0.7869228029159815,-1.68,-0.7657217951491588
-1.67,-0.7791568059936358,-1.67,-0.7581145994386851
-1.66,-0.7713952327095379,-1.66,-0.7505116374924451
-1.65,-0.7636381043322731,-1.65,-0.7429129294216957
-1.64,-0.7558854423049188,-1.64,-0.7353184955028066
-1.63,-0.7481372682472256,-1.63,-0.7277283561793033
-1.62,-0.7403936039578352,-1.62,-0.7201425320639484
-1.61,-0.732654471416498,-1.61,-0.7125610439408193
-1.6,-0.7249198927863354,-1.6,-0.7049839127674433
-1.59,-0.7171898904161331,-1.59,-0.6974111596769406
-1.58,-0.70946448684264,-1.58,-0.6898428059801958
-1.57,-0.7017437047929124,-1.57,-0.682278873168069
-1.56,-0.6940275671866882,-1.56,-0.6747193829136127
-1.55,-0.6863160971387815,-1.55,-0.6671643570743447
-1.54,-0.6786093179615084,-1.54,-0.6596138176945361
-1.53,-0.6709072531671619,-1.53,-0.6520677870075283
-1.52,-0.6632099264704969,-1.52,-0.6445262874380903
-1.51,-0.6555173617912557,-1.51,-0.636989341604802
-1.5,-0.6478295832567366,-1.5,-0.6294569723224732
-1.49,-0.6401466152043901,-1.49,-0.6219292026045945
-1.48,-0.6324684821844402,-1.48,-0.6144060556658321
-1.47,-0.6247952089625782,-1.47,-0.6068875549245358
-1.46,-0.6171268205226375,-1.46,-0.5993737240053026
-1.45,-0.6094633420693649,-1.45,-0.5918645867415807
-1.44,-0.6018047990311912,-1.44,-0.5843601671782891
-1.43,-0.5941512170630632,-1.43,-0.5768604895744953
-1.42,-0.5865026220492984,-1.42,-0.5693655784061228
-1.41,-0.5788590401065042,-1.41,-0.5618754583687081
-1.4,-0.5712204975865223,-1.4,-0.5543901543801814
-1.39,-0.5635870210794154,-1.39,-0.5469096915837081
-1.38,-0.5559586374165207,-1.38,-0.5394340953505586
-1.37,-0.5483353736735214,-1.37,-0.5319633912830299
-1.36,-0.5407172571735749,-1.36,-0.5244976052174098
-1.35,-0.5331043154905022,-1.35,-0.5170367632269911
-1.34,-0.5254965764520081,-1.34,-0.509580891625106
-1.33,-0.5178940681429471,-1.33,-0.5021300169682547
-1.32,-0.5102968189086696,-1.32,-0.4946841660592409
-1.31,-0.5027048573583793,-1.31,-0.4872433659503734
-1.3,-0.4951182123685767,-1.3,-0.479807643946712
-1.29,-0.4875369130865342,-1.29,-0.4723770276093767
-1.28,-0.4799609889338425,-1.28,-0.4649515447588937
-1.27,-0.472390469610001,-1.27,-0.4575312234786019
-1.26,-0.4648253850960643,-1.26,-0.4501160921181187
-1.25,-0.4572657656583632,-1.25,-0.4427061792968444
-1.24,-0.4497116418522695,-1.24,-0.4353015139075468
-1.23,-0.4421630445260176,-1.23,-0.4279021251199796
-1.22,-0.4346200048246091,-1.22,-0.4205080423845823
-1.21,-0.4270825541937599,-1.21,-0.4131192954362157
-1.2,-0.4195507243839222,-1.2,-0.4057359142979859
-1.19,-0.4120245474543717,-1.19,-0.3983579292851001
-1.179999999999999,-0.4045040557773566,-1.179999999999999,-0.390985371008823
-1.169999999999999,-0.3969892820423203,-1.169999999999999,-0.3836182703804571
-1.159999999999999,-0.3894802592601934,-1.159999999999999,-0.3762566586154257
-1.149999999999999,-0.381977020767756,-1.149999999999999,-0.3689005672373955
-1.139999999999999,-0.3744796002320731,-1.139999999999999,-0.3615500280824983
-1.129999999999999,-0.3669880316550019,-1.129999999999999,-0.3542050733035882
-1.119999999999999,-0.3595023493777825,-1.119999999999999,-0.3468657353745926
-1.109999999999999,-0.3520225880857036,-1.109999999999999,-0.3395320470949467
-1.099999999999999,-0.3445487828128316,-1.099999999999999,-0.3322040415940752
-1.089999999999999,-0.3370809689468544,-1.089999999999999,-0.3248817523359598
-1.079999999999999,-0.3296191822339686,-1.079999999999999,-0.3175652131238175
-1.069999999999999,-0.322163458783883,-1.069999999999999,-0.3102544581047971
-1.059999999999999,-0.314713835074892,-1.059999999999999,-0.3029495217748104
-1.049999999999999,-0.307270347959041,-1.049999999999999,-0.2956504389834341
-1.039999999999999,-0.2998330346673731,-1.039999999999999,-0.2883572449388642
-1.029999999999999,-0.292401932815292,-1.029999999999999,-0.2810699752130172
-1.019999999999999,-0.2849770804079804,-1.019999999999999,-0.2737886657466564
-1.009999999999999,-0.2775585158459573,-1.009999999999999,-0.2665133528546621
-0.9999999999999993,-0.2701462779307013,-0.9999999999999993,-0.2592440732313516
-0.9899999999999993,-0.2627404058703763,-0.9899999999999993,-0.2519808639559276
-0.9799999999999993,-0.2553409392856811,-0.9799999999999993,-0.2447237624980021
-0.9699999999999993,-0.2479479182157827,-0.9699999999999993,-0.2374728067232302
-0.9599999999999993,-0.2405613831243666,-0.9599999999999993,-0.230228034899033
-0.9499999999999993,-0.2331813749057777,-0.9499999999999993,-0.2229894857004346
-0.9399999999999993,-0.2258079348913118,-0.9399999999999993,-0.2157571982159992
-0.9299999999999993,-0.218441104855574,-0.9299999999999993,-0.208531211953889
-0.9199999999999993,-0.2110809270229781,-0.9199999999999993,-0.2013115668479955
-0.9099999999999993,-0.2037274440743812,-0.9099999999999993,-0.1940983032642255
-0.8999999999999992,-0.1963806991537932,-0.8999999999999992,-0.1868914620068938
-0.8899999999999992,-0.189040735875257,-0.8899999999999992,-0.1796910843251923
-0.8799999999999992,-0.1817075983298305,-0.8799999999999992,-0.1724972119198387
-0.8699999999999992,-0.1743813310927057,-0.8699999999999992,-0.1653098869498115
-0.8599999999999992,-0.1670619792304606,-0.8599999999999992,-0.1581291520392141
-0.8499999999999992,-0.1597495883084397,-0.8499999999999992,-0.1509550502842802
-0.8399999999999992,-0.1524442043982999,-0.8399999999999992,-0.1437876252604989
-0.8299999999999992,-0.1451458740856576,-0.8299999999999992,-0.1366269210298867
-0.8199999999999992,-0.1378546444779035,-0.8199999999999992,-0.1294729821483694
-0.8099999999999992,-0.1305705632122015,-0.8099999999999992,-0.1223258536733437
-0.7999999999999992,-0.1232936784635537,-0.7999999999999992,-0.1151855811713713
-0.7899999999999991,-0.1160240389531178,-0.7899999999999991,-0.1080522107259757
-0.7799999999999991,-0.1087616939566215,-0.7799999999999991,-0.1009257889456697
-0.7699999999999991,-0.1015066933129622,-0.7699999999999991,-0.09380636297208868
-0.7599999999999991,-0.09425908743298086,-0.7599999999999991,-0.08669398048826375
-0.7499999999999991,-0.08701892730840871,-0.7499999999999991,-0.07958868972711927
-0.7399999999999991,-0.07978626452096355,-0.7399999999999991,-0.07249053948008227
-0.7299999999999991,-0.07256115125168547,-0.7299999999999991,-0.06539957910590677
-0.7199999999999991,-0.06534364029039368,-0.7199999999999991,-0.05831585853962321
-0.7099999999999991,-0.05813378504539427,-0.7099999999999991,-0.05123942830172951
-0.6999999999999991,-0.05093163955334173,-0.6999999999999991,-0.0441703395075231
-0.6899999999999991,-0.04373725848934935,-0.6899999999999991,-0.03710864387664022
-0.679999999999999,-0.03655069717725661,-0.679999999999999,-0.03005439374280233
-0.669999999999999,-0.0293720116001637,-0.669999999999999,-0.02300764206373395
-0.659999999999999,-0.02220125841116787,-0.659999999999999,-0.0159684424313459
-0.649999999999999,-0.01503849494432761,-0.649999999999999,-0.008936849082070871
-0.639999999999999,-0.007883779225883465,-0.639999999999999,-0.001912916907487948
-0.629999999999999,-0.000737169985716197,-0.629999999999999,0.005110030238041237
-0.619999999999999,0.006412019394390488,-0.619999999999999,0.01214986147523664
-0.609999999999999,0.01357970183924079,-0.609999999999999,0.01920747796097823
-0.599999999999999,0.02076595678380012,-0.599999999999999,0.02628281220372787
-0.589999999999999,0.02797071421975969,-0.589999999999999,0.03337579547687462
-0.579999999999999,0.03519390326329633,-0.579999999999999,0.04048635873826926
-0.569999999999999,0.0424354526728084,-0.569999999999999,0.04761443264075384
-0.5599999999999989,0.04969529085981081,-0.5599999999999989,0.05475994754236352
-0.5499999999999989,0.05697334589946455,-0.5499999999999989,0.06192283351651043
-0.5399999999999989,0.06426954554085404,-0.5399999999999989,0.06910302036173933
-0.5299999999999989,0.07158381721705728,-0.5299999999999989,0.07630043761135773
-0.5199999999999989,0.07891608805469701,-0.5199999999999989,0.08351501454263256
-0.5099999999999989,0.08626628488315129,-0.5099999999999989,0.09074668018574261
-0.4999999999999989,0.09363433424321137,-0.4999999999999989,0.09799536333217457
-0.4899999999999989,0.101020162395243,-0.4899999999999989,0.1052609925427842
-0.4799999999999989,0.1084236953264776,-0.4799999999999989,0.1125434961551069
-0.4699999999999989,0.1158448587576493,-0.4699999999999989,0.1198428022902059
-0.4599999999999989,0.1232835781485312,-0.4599999999999989,0.1271588388585355
-0.4499999999999988,0.1307397787023611,-0.4499999999999988,0.1344915335650617
-0.4399999999999988,0.1382133853689116,-0.4399999999999988,0.1418408139131169
-0.4299999999999988,0.145704322845818,-0.4299999999999988,0.1492066072071588
-0.4199999999999988,0.1532125155780207,-0.4199999999999988,0.1565888405537902
-0.4099999999999988,0.1607378877547909,-0.4099999999999988,0.1639874408611375
-0.3999999999999988,0.1682803633039777,-0.3999999999999988,0.1714023348359187
-0.3899999999999988,0.1758398658828259,-0.3899999999999988,0.1788334489780393
-0.3799999999999988,0.1834163188647048,-0.3799999999999988,0.1862807095720246
-0.3699999999999988,0.1910096453210108,-0.3699999999999988,0.1937440426747053
-0.3599999999999988,0.1986197679971003,-0.3599999999999988,0.201223374098621
-0.3499999999999988,0.2062466092811641,-0.3499999999999988,0.2087186293899644
-0.3399999999999987,0.2138900911645567,-0.3399999999999987,0.2162297338001609
-0.3299999999999987,0.2215501351917523,-0.3299999999999987,0.2237566122499333
-0.3199999999999987,0.2292266623979544,-0.3199999999999987,0.2312991892838888
-0.3099999999999987,0.2369195932315016,-0.3099999999999987,0.2388573890143124
-0.2999999999999987,0.244628847458311,-0.2999999999999987,0.2464311350514312
-0.2899999999999987,0.2523543440441794,-0.2899999999999987,0.2540203504177296
-0.2799999999999987,0.2600960010106491,-0.2799999999999987,0.261624957442826
-0.2699999999999987,0.2678537352586587,-0.2699999999999987,0.26924487763519
-0.2599999999999987,0.2756274623533882,-0.2599999999999987,0.276880031525627
-0.2499999999999987,0.2834170962619088,-0.2499999999999987,0.284530338476857
-0.2399999999999987,0.2912225490339059,-0.2399999999999987,0.2921957164523257
-0.2299999999999986,0.2990437304132006,-0.2299999999999986,0.2998760817354108
-0.2199999999999986,0.3068805473656688,-0.2199999999999986,0.3075713485891781
-0.2099999999999986,0.314732903505426,-0.2099999999999986,0.315281428844031
-0.1999999999999986,0.3226006983981076,-0.1999999999999986,0.3230062313983273
-0.1899999999999986,0.3304838267146616,-0.1899999999999986,0.3307456616137612
-0.1799999999999986,0.3383821772040932,-0.1799999999999986,0.3384996205837466
-0.1699999999999986,0.3462956314463066,-0.1699999999999986,0.3462680042478767
-0.1599999999999986,0.354224062338213,-0.1599999999999986,0.3540507023206488
-0.1499999999999986,0.3621673322560767,-0.1499999999999986,0.3618475969952316
-0.1399999999999986,0.3701252908247328,-0.1399999999999986,0.3696585613752019
-0.1299999999999986,0.3780977722097658,-0.1299999999999986,0.3774834575773324
-0.1199999999999986,0.3860845918305028,-0.1199999999999986,0.3853221344360615
-0.1099999999999986,0.394085542370044,-0.1099999999999986,0.3931744247264587
-0.09999999999999858,0.4021003889321365,-0.09999999999999858,0.4010401418043086
-0.08999999999999858,0.410128863163063,-0.08999999999999858,0.4089190755412967
-0.07999999999999859,0.4181706561180918,-0.07999999999999859,0.4168109874075333
-0.06999999999999859,0.4262254096063486,-0.06999999999999859,0.4247156045233475
-0.05999999999999859,0.4342927056923318,-0.05999999999999859,0.4326326124651238
-0.04999999999999859,0.442372053966598,-0.04999999999999859,0.4405616465662284
-0.03999999999999859,0.4504628761197872,-0.03999999999999859,0.4485022814017772
-0.02999999999999858,0.4585644872616242,-0.02999999999999858,0.4564540180827958
-0.01999999999999858,0.4666760733183504,-0.01999999999999858,0.4644162689127693
-0.009999999999998581,0.474796663716787,-0.009999999999998581,0.4723883388717657
0,0.4829250984202423,0,0.4803694032934084
